!    23/08/2022   12:27:39 PM 
! Ref Plane: 0.000 mm
# MHZ S MA R  50
!
30.0000       0.99642       -6.37         2.449E-4      32.96         2.016E-4      25.93         0.99668       -6.39          
30.0350       0.99633       -6.35         1.922E-4      -44.49        1.753E-4      -19.26        0.99644       -6.38          
30.0700       0.9966        -6.34         5.382E-6      10.65         1.912E-5      -164.73       0.99669       -6.38          
30.1050       0.99681       -6.36         6.703E-5      -129.07       1.37E-5       -109.76       0.99713       -6.39          
30.1400       0.9968        -6.38         5.286E-5      100.13        8.645E-5      143.84        0.99724       -6.42          
30.1750       0.9969        -6.38         8.45E-5       121.71        1.382E-4      125.33        0.99727       -6.45          
30.2100       0.99695       -6.40         1.894E-4      95.22         1.967E-4      103.69        0.99698       -6.47          
30.2450       0.99693       -6.43         2.701E-4      88.57         2.186E-4      88.60         0.99665       -6.49          
30.2800       0.99665       -6.44         1.987E-4      76.03         2.392E-4      69.53         0.99629       -6.51          
30.3150       0.99625       -6.45         2.331E-4      21.74         2.20E-4       26.55         0.99545       -6.51          
30.3500       0.99611       -6.43         5.907E-5      81.85         7.588E-5      61.68         0.99508       -6.46          
30.3850       0.99639       -6.43         2.609E-4      63.59         2.50E-4       74.91         0.9956        -6.42          
30.4200       0.99669       -6.44         1.721E-4      44.41         1.984E-4      49.91         0.99647       -6.42          
30.4550       0.99673       -6.46         1.044E-4      70.41         2.265E-4      65.08         0.9968        -6.45          
30.4900       0.99686       -6.48         2.639E-4      56.25         2.398E-4      43.33         0.99682       -6.48          
30.5250       0.99652       -6.50         1.803E-4      3.85          2.471E-4      6.19          0.99673       -6.49          
30.5600       0.99617       -6.50         7.489E-5      11.88         5.589E-5      -30.43        0.99682       -6.50          
30.5950       0.99621       -6.50         1.039E-4      100.22        1.036E-4      67.55         0.99682       -6.51          
30.6300       0.99601       -6.51         1.836E-4      70.86         2.543E-4      69.31         0.99689       -6.52          
30.6650       0.99602       -6.50         2.567E-4      42.22         2.543E-4      42.88         0.99705       -6.53          
30.7000       0.99623       -6.51         2.013E-4      25.67         2.778E-4      24.05         0.99701       -6.56          
30.7350       0.9963        -6.52         1.663E-4      16.20         2.22E-4       -13.15        0.99692       -6.57          
30.7700       0.99607       -6.53         1.386E-4      -21.58        1.633E-4      2.58          0.99681       -6.58          
30.8050       0.99613       -6.52         1.577E-4      74.78         1.198E-4      53.97         0.99676       -6.60          
30.8400       0.99634       -6.54         2.71E-4       23.43         2.663E-4      15.65         0.9965        -6.61          
30.8750       0.99634       -6.55         1.561E-4      -26.12        1.757E-4      -21.77        0.99614       -6.61          
30.9100       0.99628       -6.56         1.327E-4      -3.19         7.047E-5      1.55          0.99633       -6.61          
30.9450       0.99628       -6.57         1.024E-4      -2.27         1.20E-4       -21.45        0.9965        -6.62          
30.9800       0.99627       -6.57         1.21E-4       26.16         1.184E-4      -17.79        0.99652       -6.64          
31.0150       0.99643       -6.58         7.29E-5       -10.44        7.001E-5      4.37          0.9962        -6.65          
31.0500       0.99647       -6.60         1.152E-4      35.23         1.089E-4      42.32         0.99634       -6.65          
31.0850       0.99636       -6.62         2.175E-4      20.84         1.349E-4      14.33         0.99646       -6.67          
31.1200       0.99626       -6.63         1.599E-4      -7.14         1.975E-4      5.05          0.99611       -6.69          
31.1550       0.99619       -6.63         9.404E-5      44.35         1.416E-4      -3.54         0.99594       -6.69          
31.1900       0.99624       -6.66         2.787E-4      20.40         2.189E-4      21.66         0.99605       -6.69          
31.2250       0.99612       -6.67         2.364E-4      -0.43         2.443E-4      -0.77         0.99582       -6.71          
31.2600       0.99598       -6.68         2.21E-4       4.13          2.127E-4      9.86          0.99556       -6.70          
31.2950       0.99565       -6.70         3.677E-4      -13.23        3.545E-4      -6.60         0.99576       -6.71          
31.3300       0.99565       -6.69         2.613E-4      -28.44        3.445E-4      -23.44        0.99592       -6.74          
31.3650       0.99595       -6.71         3.408E-4      -41.62        4.167E-4      -43.50        0.99568       -6.77          
31.4000       0.996         -6.79         3.132E-4      -56.11        3.282E-4      -50.17        0.99522       -6.87          
31.4350       0.99394       -6.80         1.058E-3      169.34        1.135E-3      168.80        0.99189       -6.72          
31.4700       0.9926        -6.59         1.232E-3      37.11         1.217E-3      35.65         0.99341       -6.63          
31.5050       0.99494       -6.60         1.108E-3      -44.25        1.163E-3      -41.58        0.99432       -6.63          
31.5400       0.99531       -6.64         8.691E-4      -79.23        8.567E-4      -83.08        0.99498       -6.64          
31.5750       0.99519       -6.67         4.829E-4      -111.22       5.621E-4      -115.39       0.99542       -6.65          
31.6100       0.99541       -6.68         3.209E-4      -113.04       3.464E-4      -114.11       0.99586       -6.67          
31.6450       0.99519       -6.68         2.666E-4      -101.96       2.761E-4      -116.31       0.996         -6.70          
31.6800       0.99534       -6.69         1.827E-4      -68.48        3.453E-4      -79.02        0.996         -6.72          
31.7150       0.99542       -6.69         5.137E-4      -93.27        4.534E-4      -93.00        0.9957        -6.73          
31.7500       0.99545       -6.71         4.426E-4      -107.97       4.23E-4       -118.96       0.99597       -6.74          
31.7850       0.99544       -6.70         2.877E-4      -129.42       3.425E-4      -115.50       0.99602       -6.76          
31.8200       0.99569       -6.72         3.778E-4      -124.19       3.935E-4      -119.41       0.99607       -6.77          
31.8550       0.99565       -6.73         4.155E-4      -117.76       4.424E-4      -124.28       0.99602       -6.79          
31.8900       0.99591       -6.73         4.076E-4      -135.50       4.188E-4      -129.36       0.99586       -6.80          
31.9250       0.99605       -6.76         5.791E-4      -120.37       4.699E-4      -123.14       0.99582       -6.82          
31.9600       0.99593       -6.78         5.925E-4      -144.66       5.885E-4      -146.30       0.99572       -6.82          
31.9950       0.99571       -6.84         6.885E-4      -151.96       7.194E-4      -156.57       0.99537       -6.83          
32.0300       0.99518       -6.76         1.452E-4      -132.92       1.568E-4      -125.40       0.99596       -6.82          
32.0650       0.99554       -6.77         5.473E-4      -140.53       5.652E-4      -135.30       0.99611       -6.85          
32.1000       0.99589       -6.78         6.278E-4      -157.95       6.376E-4      -161.47       0.99553       -6.90          
32.1350       0.99595       -6.81         6.813E-4      -172.32       7.002E-4      -173.18       0.99501       -6.83          
32.1700       0.99594       -6.84         5.822E-4      161.88        6.428E-4      167.02        0.99561       -6.84          
32.2050       0.99522       -6.89         4.446E-4      161.74        5.13E-4       164.59        0.99581       -6.87          
32.2400       0.99412       -6.81         5.634E-4      173.69        5.472E-4      169.26        0.99566       -6.90          
32.2750       0.99522       -6.81         5.475E-4      159.89        5.358E-4      152.75        0.99552       -6.91          
32.3100       0.99515       -6.82         4.933E-4      158.04        5.432E-4      158.51        0.99511       -6.93          
32.3450       0.99517       -6.82         5.598E-4      163.41        5.603E-4      165.89        0.99423       -6.95          
32.3800       0.99583       -6.82         5.328E-4      149.03        5.76E-4       149.60        0.99312       -6.85          
32.4150       0.99602       -6.85         5.523E-4      152.86        6.008E-4      151.99        0.99485       -6.81          
32.4500       0.99587       -6.88         5.475E-4      145.65        6.628E-4      144.84        0.99561       -6.85          
32.4850       0.99577       -6.91         6.02E-4       133.14        7.072E-4      132.84        0.99585       -6.89          
32.5200       0.99522       -6.95         7.385E-4      117.72        7.248E-4      116.78        0.99546       -6.93          
32.5550       0.99339       -6.88         2.823E-4      130.99        3.568E-4      135.39        0.99457       -6.90          
32.5900       0.99484       -6.82         6.51E-4       138.11        7.323E-4      137.12        0.99529       -6.87          
32.6250       0.99557       -6.84         7.361E-4      110.58        7.516E-4      113.03        0.9958        -6.88          
32.6600       0.99586       -6.86         7.378E-4      105.15        7.638E-4      103.94        0.99606       -6.90          
32.6950       0.99606       -6.89         6.592E-4      98.40         6.518E-4      96.09         0.99622       -6.92          
32.7300       0.99596       -6.91         6.164E-4      88.56         6.356E-4      92.25         0.99622       -6.95          
32.7650       0.99616       -6.92         5.757E-4      92.40         6.391E-4      88.21         0.99616       -6.95          
32.8000       0.99617       -6.94         5.725E-4      85.09         6.363E-4      85.28         0.99638       -6.98          
32.8350       0.99594       -6.97         5.777E-4      83.94         6.651E-4      79.97         0.9963        -7.01          
32.8700       0.99527       -6.97         6.207E-4      64.47         6.51E-4       64.88         0.99587       -7.03          
32.9050       0.99547       -6.94         3.918E-4      57.36         3.505E-4      61.28         0.99554       -7.01          
32.9400       0.99583       -6.96         4.976E-4      83.45         4.932E-4      78.27         0.9957        -7.02          
32.9750       0.9957        -6.98         7.179E-4      76.51         7.098E-4      72.76         0.9954        -7.05          
33.0100       0.99567       -6.98         8.01E-4       50.38         7.69E-4       51.54         0.99497       -7.02          
33.0450       0.99583       -6.99         4.80E-4       39.54         5.442E-4      42.15         0.9956        -7.01          
33.0800       0.99563       -6.99         4.475E-4      39.13         4.961E-4      42.82         0.99579       -7.04          
33.1150       0.99569       -7.00         4.188E-4      41.91         4.335E-4      47.64         0.99535       -7.05          
33.1500       0.9959        -7.00         5.784E-4      42.45         5.107E-4      42.31         0.99549       -7.02          
33.1850       0.99624       -7.01         4.636E-4      35.88         4.658E-4      40.93         0.99604       -7.04          
33.2200       0.99626       -7.05         4.453E-4      23.45         4.957E-4      25.38         0.99617       -7.07          
33.2550       0.996         -7.06         4.501E-4      34.15         4.613E-4      23.57         0.99597       -7.08          
33.2900       0.99584       -7.06         4.727E-4      14.82         5.155E-4      18.69         0.99598       -7.09          
33.3250       0.99579       -7.07         4.413E-4      16.16         4.635E-4      12.66         0.99598       -7.09          
33.3600       0.99581       -7.06         3.21E-4       13.99         4.338E-4      17.67         0.99625       -7.10          
33.3950       0.99604       -7.07         3.538E-4      12.21         4.294E-4      10.32         0.99649       -7.12          
33.4300       0.99617       -7.08         3.484E-4      4.20          3.864E-4      5.24          0.99631       -7.15          
33.4650       0.99619       -7.10         3.327E-4      3.58          3.95E-4       6.57          0.99601       -7.15          
33.5000       0.99613       -7.12         3.398E-4      -4.19         3.051E-4      -5.94         0.99614       -7.15          
33.5350       0.99595       -7.14         2.716E-4      1.59          3.155E-4      -0.58         0.99612       -7.17          
33.5700       0.99569       -7.12         3.62E-4       4.14          3.838E-4      2.02          0.99607       -7.16          
33.6050       0.99598       -7.12         3.542E-4      -18.55        3.82E-4       -19.56        0.99636       -7.17          
33.6400       0.99614       -7.14         2.778E-4      -20.90        2.524E-4      -17.80        0.99647       -7.19          
33.6750       0.99629       -7.14         3.447E-4      -12.41        3.193E-4      -14.02        0.99653       -7.22          
33.7100       0.99647       -7.17         3.349E-4      -20.85        3.647E-4      -30.11        0.99624       -7.24          
33.7450       0.99635       -7.18         3.324E-4      -48.72        3.105E-4      -49.93        0.99585       -7.26          
33.7800       0.99652       -7.20         2.785E-4      -69.30        2.291E-4      -61.91        0.99532       -7.24          
33.8150       0.99665       -7.22         1.941E-4      -18.05        2.375E-4      -31.80        0.99576       -7.22          
33.8500       0.99648       -7.25         1.906E-4      -53.32        2.442E-4      -48.19        0.99615       -7.23          
33.8850       0.996         -7.28         2.026E-4      -36.47        2.079E-4      -54.75        0.99621       -7.27          
33.9200       0.99519       -7.28         3.066E-4      -57.04        3.163E-4      -62.74        0.9959        -7.26          
33.9550       0.99538       -7.25         2.637E-4      -101.37       2.891E-4      -104.24       0.99632       -7.26          
33.9900       0.99563       -7.26         1.566E-4      -107.29       2.472E-4      -129.69       0.99658       -7.29          
34.0250       0.99545       -7.27         1.404E-4      166.08        1.251E-4      173.56        0.99648       -7.31          
34.0600       0.99558       -7.26         1.947E-5      167.71        2.954E-5      160.61        0.99646       -7.33          
34.0950       0.99588       -7.27         6.461E-5      117.30        6.111E-5      157.71        0.99638       -7.35          
34.1300       0.99594       -7.28         4.575E-5      -175.21       4.369E-5      -16.16        0.99629       -7.37          
34.1650       0.9963        -7.29         1.808E-4      -58.00        1.254E-4      -49.29        0.99581       -7.38          
34.2000       0.9965        -7.32         1.879E-4      -101.38       1.518E-4      -121.25       0.99557       -7.37          
34.2350       0.99644       -7.35         9.212E-5      -128.33       7.654E-5      -144.69       0.99597       -7.36          
34.2700       0.99641       -7.37         1.053E-4      -154.93       1.141E-4      -151.51       0.99639       -7.39          
34.3050       0.99617       -7.41         1.055E-4      -173.70       1.097E-4      -165.66       0.99635       -7.44          
34.3400       0.99578       -7.44         1.488E-4      -161.17       2.002E-4      -157.99       0.99598       -7.48          
34.3750       0.9933        -7.47         6.95E-4       130.69        7.359E-4      130.98        0.99524       -7.51          
34.4100       0.99429       -7.41         5.775E-4      91.33         6.231E-4      91.26         0.99311       -7.43          
34.4450       0.99368       -7.44         4.709E-4      -25.31        5.168E-4      -22.29        0.99447       -7.43          
34.4800       0.99423       -7.38         2.588E-4      -99.95        3.163E-4      -88.74        0.99407       -7.46          
34.5150       0.99446       -7.37         2.952E-4      -56.48        2.538E-4      -57.25        0.99327       -7.42          
34.5500       0.99404       -7.37         1.865E-4      -113.64       2.611E-4      -109.81       0.99403       -7.37          
34.5850       0.99451       -7.34         4.832E-4      -153.56       4.553E-4      -154.67       0.99462       -7.36          
34.6200       0.99476       -7.35         3.579E-4      158.21        3.618E-4      152.88        0.99524       -7.38          
34.6550       0.99545       -7.36         2.76E-4       159.36        3.163E-4      163.92        0.99547       -7.41          
34.6900       0.99553       -7.37         3.561E-4      116.99        4.12E-4       123.74        0.99571       -7.43          
34.7250       0.99598       -7.39         4.269E-4      108.84        4.505E-4      109.43        0.99575       -7.44          
34.7600       0.99593       -7.42         2.966E-4      66.96         3.626E-4      74.88         0.99587       -7.45          
34.7950       0.99606       -7.44         2.842E-4      66.00         2.489E-4      72.61         0.9961        -7.48          
34.8300       0.99608       -7.47         1.567E-4      30.00         2.047E-4      40.98         0.9961        -7.51          
34.8650       0.99588       -7.49         1.258E-4      53.47         9.33E-5       55.92         0.99604       -7.53          
34.9000       0.99579       -7.51         1.067E-4      62.13         6.555E-5      64.75         0.99577       -7.56          
34.9350       0.9953        -7.53         1.175E-4      -25.32        9.316E-5      -1.18         0.99525       -7.58          
34.9700       0.99478       -7.50         2.667E-4      -131.78       3.301E-4      -137.39       0.99486       -7.55          
35.0050       0.99523       -7.48         4.731E-4      162.62        5.526E-4      159.35        0.99518       -7.53          
35.0400       0.99567       -7.49         5.599E-4      118.41        5.859E-4      114.28        0.99577       -7.54          
35.0750       0.99606       -7.51         4.519E-4      90.10         4.502E-4      89.85         0.99609       -7.57          
35.1100       0.99617       -7.54         3.627E-4      88.05         4.093E-4      91.89         0.996         -7.59          
35.1450       0.99611       -7.57         3.82E-4       91.97         3.44E-4       79.17         0.99607       -7.61          
35.1800       0.99594       -7.59         3.19E-4       81.84         3.335E-4      86.01         0.99605       -7.63          
35.2150       0.99567       -7.60         3.854E-4      96.16         4.506E-4      90.01         0.99595       -7.66          
35.2500       0.99576       -7.59         4.501E-4      82.78         4.776E-4      83.67         0.99536       -7.66          
35.2850       0.99607       -7.60         4.679E-4      74.92         4.199E-4      79.34         0.99548       -7.65          
35.3200       0.99628       -7.63         4.973E-4      76.07         4.252E-4      74.91         0.99579       -7.66          
35.3550       0.99624       -7.66         5.02E-4       71.12         4.80E-4       72.70         0.99583       -7.68          
