!    24/08/2022   11:30:25 AM 
! Ref Plane: 0.000 mm
# MHZ S MA R  50
!
35.0000       0.99504       -7.53         1.606E-4      -127.37       1.346E-4      -133.43       0.99475       -7.46          
35.0013       0.99498       -7.52         1.799E-4      -135.12       1.314E-4      -143.15       0.99477       -7.46          
35.0025       0.99495       -7.53         1.50E-4       -135.65       1.682E-4      -144.79       0.99485       -7.46          
35.0038       0.9949        -7.52         2.207E-4      -142.14       2.179E-4      -140.03       0.99484       -7.46          
35.0050       0.99487       -7.52         2.29E-4       -156.79       2.014E-4      -153.68       0.99486       -7.46          
35.0063       0.99482       -7.52         2.679E-4      -163.51       2.468E-4      -145.48       0.99485       -7.46          
35.0075       0.99478       -7.52         1.49E-4       -148.48       2.396E-4      -149.98       0.99487       -7.46          
35.0088       0.99478       -7.52         2.312E-4      -147.24       1.963E-4      -151.82       0.99484       -7.46          
35.0100       0.99476       -7.52         2.539E-4      -169.96       2.619E-4      -161.95       0.99488       -7.45          
35.0113       0.9947        -7.51         2.617E-4      -175.56       2.779E-4      -164.43       0.9949        -7.46          
35.0125       0.99465       -7.51         2.774E-4      -174.02       3.054E-4      -166.44       0.99491       -7.46          
35.0138       0.9946        -7.50         2.292E-4      -173.56       2.831E-4      -162.81       0.9949        -7.46          
35.0150       0.99462       -7.50         2.728E-4      -160.85       2.916E-4      -170.93       0.99493       -7.46          
35.0163       0.99459       -7.50         3.231E-4      179.73        3.309E-4      -173.93       0.99495       -7.45          
35.0175       0.99465       -7.50         2.795E-4      -169.34       2.924E-4      -168.67       0.9949        -7.46          
35.0188       0.99459       -7.49         3.446E-4      179.44        2.731E-4      -167.05       0.99491       -7.45          
35.0200       0.99464       -7.49         3.554E-4      -169.73       3.777E-4      -177.13       0.99493       -7.45          
35.0213       0.99469       -7.49         3.594E-4      176.26        3.199E-4      -178.16       0.99495       -7.45          
35.0225       0.99469       -7.48         3.973E-4      -179.17       3.921E-4      -179.25       0.99493       -7.45          
35.0238       0.99465       -7.48         3.934E-4      -178.22       4.368E-4      174.82        0.99501       -7.45          
35.0250       0.99472       -7.48         3.644E-4      178.21        4.304E-4      167.76        0.995         -7.45          
35.0263       0.99473       -7.47         3.953E-4      167.66        4.346E-4      167.31        0.99501       -7.45          
35.0275       0.99474       -7.47         4.037E-4      161.95        4.304E-4      161.30        0.99504       -7.45          
35.0288       0.99476       -7.47         3.885E-4      162.13        4.821E-4      162.90        0.99502       -7.44          
35.0300       0.99483       -7.46         4.589E-4      158.11        4.349E-4      160.82        0.99504       -7.45          
35.0313       0.99485       -7.46         4.316E-4      162.54        4.26E-4       157.51        0.99508       -7.44          
35.0325       0.99498       -7.46         4.221E-4      152.68        4.766E-4      149.86        0.99511       -7.44          
35.0338       0.99503       -7.46         4.365E-4      149.98        4.858E-4      151.61        0.99508       -7.44          
35.0350       0.99506       -7.46         4.301E-4      142.40        4.775E-4      155.22        0.99508       -7.44          
35.0363       0.99513       -7.46         3.937E-4      150.89        4.527E-4      151.10        0.99514       -7.44          
35.0375       0.99515       -7.46         5.328E-4      142.07        4.981E-4      149.91        0.99514       -7.44          
35.0388       0.99518       -7.46         4.757E-4      145.35        4.765E-4      149.12        0.99517       -7.44          
35.0400       0.99527       -7.46         4.759E-4      147.96        5.068E-4      142.04        0.99517       -7.44          
35.0413       0.99534       -7.46         4.985E-4      136.18        5.196E-4      142.91        0.99516       -7.43          
35.0425       0.99539       -7.46         5.238E-4      144.34        5.199E-4      142.55        0.99525       -7.43          
35.0438       0.99541       -7.46         5.041E-4      136.40        4.844E-4      138.92        0.99528       -7.43          
35.0450       0.99546       -7.46         4.784E-4      139.45        5.277E-4      137.80        0.99527       -7.43          
35.0463       0.99547       -7.46         5.353E-4      137.21        5.165E-4      133.16        0.99534       -7.43          
35.0475       0.99547       -7.46         4.576E-4      129.57        5.552E-4      133.47        0.99536       -7.43          
35.0488       0.9955        -7.47         4.793E-4      131.63        5.268E-4      132.77        0.99542       -7.43          
35.0500       0.99556       -7.47         4.94E-4       130.86        5.219E-4      128.85        0.99546       -7.43          
35.0513       0.99556       -7.47         4.93E-4       131.80        5.18E-4       124.58        0.99551       -7.43          
35.0525       0.99558       -7.47         5.59E-4       121.91        5.021E-4      126.59        0.99556       -7.43          
35.0538       0.99559       -7.47         4.427E-4      128.05        5.071E-4      120.11        0.99559       -7.43          
35.0550       0.99565       -7.47         5.105E-4      123.12        5.104E-4      122.65        0.9957        -7.44          
35.0563       0.9957        -7.47         4.914E-4      115.42        5.435E-4      122.15        0.9957        -7.44          
35.0575       0.99567       -7.47         4.854E-4      119.45        5.179E-4      114.93        0.99575       -7.44          
35.0588       0.99569       -7.47         4.462E-4      118.53        5.202E-4      117.44        0.99575       -7.44          
35.0600       0.99573       -7.47         4.919E-4      111.19        5.377E-4      119.27        0.9958        -7.43          
35.0613       0.99573       -7.47         5.431E-4      115.91        5.316E-4      116.69        0.99582       -7.44          
35.0625       0.99576       -7.47         4.904E-4      111.78        5.006E-4      118.03        0.9958        -7.44          
35.0638       0.99574       -7.47         5.027E-4      115.99        4.951E-4      109.22        0.99583       -7.44          
35.0650       0.99578       -7.48         4.374E-4      115.60        5.061E-4      114.01        0.99587       -7.44          
35.0663       0.99582       -7.48         4.251E-4      105.55        5.097E-4      108.70        0.9959        -7.45          
35.0675       0.99579       -7.48         4.612E-4      114.91        4.884E-4      111.56        0.99593       -7.45          
35.0688       0.99582       -7.48         4.656E-4      107.08        4.841E-4      106.58        0.99593       -7.45          
35.0700       0.99584       -7.48         4.023E-4      98.60         4.698E-4      107.92        0.99596       -7.45          
35.0713       0.99587       -7.48         4.295E-4      112.64        4.759E-4      107.80        0.99599       -7.45          
35.0725       0.99585       -7.48         4.512E-4      113.96        4.757E-4      104.83        0.996         -7.45          
35.0738       0.99588       -7.48         4.27E-4       104.11        4.514E-4      104.26        0.996         -7.45          
35.0750       0.99592       -7.48         4.107E-4      102.65        4.539E-4      103.40        0.99601       -7.46          
35.0763       0.99595       -7.48         4.32E-4       106.25        5.054E-4      104.24        0.99602       -7.46          
35.0775       0.99595       -7.49         4.628E-4      106.37        4.518E-4      108.81        0.99604       -7.46          
35.0788       0.99598       -7.49         4.604E-4      105.77        4.351E-4      98.38         0.99605       -7.46          
35.0800       0.99596       -7.49         4.268E-4      100.62        4.444E-4      100.80        0.9961        -7.46          
35.0813       0.99601       -7.49         4.135E-4      109.17        4.634E-4      107.98        0.99606       -7.46          
35.0825       0.996         -7.49         4.743E-4      106.73        4.591E-4      104.67        0.99609       -7.46          
35.0838       0.996         -7.49         4.079E-4      106.20        5.073E-4      105.03        0.99606       -7.46          
35.0850       0.99601       -7.49         4.226E-4      98.77         5.025E-4      104.27        0.9961        -7.47          
35.0863       0.996         -7.49         4.602E-4      105.26        4.657E-4      99.05         0.99617       -7.47          
35.0875       0.99602       -7.49         4.103E-4      104.18        4.535E-4      95.68         0.99613       -7.47          
35.0888       0.99603       -7.49         4.973E-4      99.25         4.61E-4       99.48         0.99608       -7.47          
35.0900       0.996         -7.50         4.007E-4      97.59         4.521E-4      100.32        0.99611       -7.47          
35.0913       0.99604       -7.50         4.099E-4      95.34         4.579E-4      96.87         0.99615       -7.47          
35.0925       0.99606       -7.50         4.269E-4      97.91         4.778E-4      96.86         0.99612       -7.48          
35.0938       0.99605       -7.50         4.513E-4      94.15         4.604E-4      97.62         0.99613       -7.48          
35.0950       0.99609       -7.50         4.294E-4      91.46         4.228E-4      96.97         0.99609       -7.48          
35.0963       0.99604       -7.50         4.159E-4      109.39        4.322E-4      97.52         0.99618       -7.48          
35.0975       0.99611       -7.50         4.656E-4      98.36         4.326E-4      94.54         0.99613       -7.48          
35.0988       0.99603       -7.50         4.774E-4      102.94        4.377E-4      94.35         0.99611       -7.49          
35.1000       0.99606       -7.50         4.129E-4      98.49         4.084E-4      96.42         0.99612       -7.48          
35.1013       0.99607       -7.50         3.887E-4      91.99         4.715E-4      94.05         0.99609       -7.49          
35.1025       0.99609       -7.50         3.419E-4      95.65         3.921E-4      94.95         0.99614       -7.49          
35.1038       0.99607       -7.50         4.264E-4      89.43         4.099E-4      97.47         0.99609       -7.49          
35.1050       0.9961        -7.51         3.46E-4       91.26         4.406E-4      97.43         0.99613       -7.49          
35.1063       0.99608       -7.51         3.943E-4      92.47         4.283E-4      90.82         0.9961        -7.49          
35.1075       0.99608       -7.51         4.218E-4      99.41         4.497E-4      89.56         0.99605       -7.49          
35.1088       0.99611       -7.51         3.746E-4      91.06         4.516E-4      94.31         0.99615       -7.49          
35.1100       0.99612       -7.51         4.134E-4      98.96         4.182E-4      93.96         0.99607       -7.49          
35.1113       0.99614       -7.51         4.20E-4       89.08         4.352E-4      94.98         0.99605       -7.49          
35.1125       0.99616       -7.51         3.544E-4      93.50         3.907E-4      89.80         0.99606       -7.50          
35.1138       0.99614       -7.51         4.187E-4      89.49         3.863E-4      94.54         0.99606       -7.50          
35.1150       0.99619       -7.52         3.928E-4      98.88         4.096E-4      89.29         0.99606       -7.50          
35.1163       0.9962        -7.51         3.708E-4      97.89         4.142E-4      93.71         0.99604       -7.50          
35.1175       0.99618       -7.51         3.676E-4      92.02         4.114E-4      92.00         0.99603       -7.50          
35.1188       0.9962        -7.51         4.226E-4      91.97         4.055E-4      96.18         0.99604       -7.50          
35.1200       0.99622       -7.52         3.888E-4      92.17         3.943E-4      90.85         0.99604       -7.50          
35.1213       0.99627       -7.52         4.115E-4      99.16         4.181E-4      87.97         0.99604       -7.50          
35.1225       0.9962        -7.52         3.181E-4      92.94         4.349E-4      85.89         0.99602       -7.50          
35.1238       0.99629       -7.52         4.034E-4      90.22         4.217E-4      90.94         0.99601       -7.50          
35.1250       0.99626       -7.52         3.461E-4      100.36        4.20E-4       98.33         0.99597       -7.50          
35.1263       0.99626       -7.52         4.11E-4       90.45         4.255E-4      95.88         0.99595       -7.50          
35.1275       0.99626       -7.52         4.256E-4      91.40         3.97E-4       92.08         0.99595       -7.50          
35.1288       0.99626       -7.52         3.867E-4      89.44         4.157E-4      88.62         0.99599       -7.50          
35.1300       0.99625       -7.52         3.93E-4       97.33         4.05E-4       90.30         0.996         -7.50          
35.1313       0.99628       -7.53         3.879E-4      94.17         3.933E-4      93.81         0.99597       -7.50          
35.1325       0.99625       -7.53         3.823E-4      86.03         4.232E-4      87.90         0.99601       -7.50          
35.1338       0.99628       -7.53         3.382E-4      96.80         3.975E-4      89.25         0.996         -7.50          
35.1350       0.99627       -7.53         3.917E-4      96.70         4.463E-4      83.25         0.99598       -7.51          
35.1363       0.99622       -7.53         4.033E-4      95.87         4.243E-4      86.65         0.99598       -7.50          
35.1375       0.9963        -7.53         3.833E-4      91.57         3.992E-4      91.91         0.99597       -7.50          
35.1388       0.99632       -7.53         3.327E-4      78.91         4.176E-4      83.11         0.99599       -7.51          
35.1400       0.99627       -7.53         3.796E-4      91.42         3.641E-4      87.81         0.99595       -7.50          
35.1413       0.99623       -7.53         4.425E-4      86.25         3.854E-4      88.55         0.99599       -7.51          
35.1425       0.99625       -7.54         3.522E-4      85.63         4.075E-4      87.57         0.99596       -7.51          
35.1438       0.99628       -7.54         3.399E-4      83.30         3.549E-4      85.13         0.99594       -7.51          
35.1450       0.99628       -7.54         3.447E-4      85.20         3.906E-4      82.74         0.99599       -7.51          
35.1463       0.9963        -7.54         3.423E-4      86.26         3.98E-4       88.39         0.996         -7.51          
35.1475       0.99625       -7.55         3.402E-4      88.51         3.56E-4       82.95         0.99595       -7.51          
35.1488       0.9962        -7.54         3.833E-4      81.29         3.327E-4      82.66         0.99593       -7.50          
35.1500       0.99622       -7.54         2.985E-4      76.52         3.651E-4      78.26         0.996         -7.51          
35.1513       0.99624       -7.55         3.265E-4      94.88         3.642E-4      82.76         0.99604       -7.51          
35.1525       0.99623       -7.55         3.394E-4      86.92         3.958E-4      83.49         0.99604       -7.51          
35.1538       0.99621       -7.55         3.866E-4      87.64         3.561E-4      77.96         0.99602       -7.51          
35.1550       0.99622       -7.55         3.099E-4      76.84         3.929E-4      78.80         0.99606       -7.51          
35.1563       0.99622       -7.55         3.204E-4      86.52         3.402E-4      82.91         0.99603       -7.51          
35.1575       0.99622       -7.55         2.935E-4      88.68         3.749E-4      77.58         0.99602       -7.51          
35.1588       0.99621       -7.55         3.125E-4      86.78         3.747E-4      79.80         0.99602       -7.51          
35.1600       0.9962        -7.55         3.456E-4      80.28         3.218E-4      81.92         0.99606       -7.51          
35.1613       0.9962        -7.55         3.766E-4      89.84         3.13E-4       85.87         0.99608       -7.51          
35.1625       0.99619       -7.55         3.269E-4      87.69         3.104E-4      84.34         0.9961        -7.51          
35.1638       0.99619       -7.56         3.242E-4      75.29         2.977E-4      81.15         0.9961        -7.51          
35.1650       0.99619       -7.56         2.719E-4      98.75         3.035E-4      86.02         0.9961        -7.51          
35.1663       0.99616       -7.56         3.212E-4      80.93         3.227E-4      81.62         0.9961        -7.51          
35.1675       0.99621       -7.56         2.854E-4      73.79         3.228E-4      76.20         0.99614       -7.51          
35.1688       0.99616       -7.56         3.007E-4      89.82         3.037E-4      92.47         0.9961        -7.51          
35.1700       0.99615       -7.56         3.341E-4      90.96         3.459E-4      85.67         0.99613       -7.51          
35.1713       0.99618       -7.56         2.748E-4      78.47         3.431E-4      84.65         0.99616       -7.51          
35.1725       0.99612       -7.56         3.242E-4      93.65         3.271E-4      92.03         0.99614       -7.52          
35.1738       0.99614       -7.56         3.428E-4      81.19         3.302E-4      93.01         0.99618       -7.52          
35.1750       0.99617       -7.56         3.306E-4      97.54         3.103E-4      88.04         0.99616       -7.52          
35.1763       0.99613       -7.56         3.134E-4      98.81         3.301E-4      89.67         0.99617       -7.52          
35.1775       0.99614       -7.56         3.397E-4      96.92         3.394E-4      95.98         0.99615       -7.52          
35.1788       0.99611       -7.57         3.668E-4      101.44        3.475E-4      89.41         0.99621       -7.52          
35.1800       0.99612       -7.57         3.022E-4      84.69         3.532E-4      91.41         0.99622       -7.52          
35.1813       0.99614       -7.57         2.97E-4       98.59         3.373E-4      102.47        0.99623       -7.52          
35.1825       0.99613       -7.57         3.458E-4      87.59         3.57E-4       96.86         0.99619       -7.52          
35.1838       0.99611       -7.57         3.275E-4      98.89         3.444E-4      94.29         0.99616       -7.52          
35.1850       0.99614       -7.57         3.247E-4      89.16         3.61E-4       89.99         0.99623       -7.52          
35.1863       0.99611       -7.57         3.493E-4      103.27        3.136E-4      91.11         0.9962        -7.53          
35.1875       0.99608       -7.57         3.21E-4       87.69         3.664E-4      89.22         0.99626       -7.53          
35.1888       0.99611       -7.57         3.755E-4      95.24         3.208E-4      89.57         0.99622       -7.53          
35.1900       0.99607       -7.58         3.187E-4      94.93         3.884E-4      95.35         0.99623       -7.53          
35.1913       0.99606       -7.57         3.699E-4      88.10         3.377E-4      95.89         0.99622       -7.53          
