!    23/08/2022   4:56:08 PM 
! Ref Plane: 0.000 mm
# MHZ S MA R  50
!
35.0000       0.99421       -7.41         1.327E-4      144.51        1.781E-4      140.00        0.99585       -7.57          
35.0013       0.99428       -7.40         1.272E-4      102.50        1.647E-4      118.98        0.99586       -7.57          
35.0025       0.99426       -7.40         1.707E-4      137.57        1.84E-4       121.32        0.99595       -7.57          
35.0038       0.9943        -7.41         2.327E-4      137.84        1.038E-4      127.52        0.9959        -7.58          
35.0050       0.99428       -7.41         1.441E-4      149.13        1.727E-4      141.41        0.99588       -7.58          
35.0063       0.99427       -7.41         1.862E-4      129.22        2.027E-4      138.95        0.99598       -7.58          
35.0075       0.99429       -7.41         1.909E-4      117.10        2.163E-4      130.34        0.99592       -7.58          
35.0088       0.99432       -7.41         1.774E-4      113.35        2.681E-4      109.82        0.99593       -7.58          
35.0100       0.99432       -7.41         1.057E-4      101.50        2.082E-4      139.37        0.99591       -7.58          
35.0113       0.99438       -7.41         1.945E-4      132.23        2.819E-4      131.51        0.99591       -7.58          
35.0125       0.99431       -7.41         2.697E-4      132.02        2.472E-4      124.71        0.99593       -7.58          
35.0138       0.9943        -7.41         3.742E-4      118.98        2.049E-4      136.71        0.99599       -7.58          
35.0150       0.99433       -7.41         2.451E-4      130.98        2.916E-4      121.90        0.99597       -7.58          
35.0163       0.99429       -7.41         2.721E-4      119.63        2.499E-4      119.78        0.99597       -7.58          
35.0175       0.99432       -7.41         2.505E-4      120.45        2.586E-4      124.65        0.99598       -7.58          
35.0188       0.99434       -7.41         2.134E-4      108.60        3.01E-4       120.79        0.99595       -7.59          
35.0200       0.99438       -7.41         2.201E-4      143.01        2.597E-4      128.19        0.99595       -7.58          
35.0213       0.99438       -7.41         1.535E-4      125.85        2.925E-4      111.80        0.99598       -7.59          
35.0225       0.9943        -7.42         2.16E-4       141.25        2.851E-4      103.13        0.99597       -7.59          
35.0238       0.99434       -7.42         2.956E-4      106.14        3.122E-4      115.77        0.996         -7.59          
35.0250       0.99436       -7.42         3.061E-4      108.18        2.876E-4      117.88        0.99603       -7.59          
35.0263       0.99435       -7.42         1.865E-4      131.03        2.732E-4      125.88        0.996         -7.59          
35.0275       0.99438       -7.42         1.964E-4      124.80        2.745E-4      120.24        0.99602       -7.59          
35.0288       0.99435       -7.42         2.128E-4      100.64        3.167E-4      124.60        0.99603       -7.59          
35.0300       0.99435       -7.42         1.634E-4      113.18        3.165E-4      120.05        0.99607       -7.59          
35.0313       0.99438       -7.42         1.796E-4      114.01        2.259E-4      117.87        0.99605       -7.59          
35.0325       0.9944        -7.42         2.143E-4      109.90        3.463E-4      129.03        0.99606       -7.59          
35.0338       0.99435       -7.42         2.07E-4       99.79         3.581E-4      114.48        0.99603       -7.59          
35.0350       0.99438       -7.42         1.603E-4      144.87        3.479E-4      119.03        0.99605       -7.59          
35.0363       0.99434       -7.42         3.038E-4      111.12        2.57E-4       108.24        0.99609       -7.59          
35.0375       0.99437       -7.42         2.376E-4      107.89        3.163E-4      100.87        0.99607       -7.60          
35.0388       0.99432       -7.42         2.801E-4      107.26        3.255E-4      106.80        0.99612       -7.60          
35.0400       0.99436       -7.42         2.846E-4      114.27        3.153E-4      119.32        0.99609       -7.60          
35.0413       0.99435       -7.42         2.272E-4      96.09         2.999E-4      111.56        0.99609       -7.60          
35.0425       0.99435       -7.42         1.749E-4      93.78         3.507E-4      113.73        0.99612       -7.60          
35.0438       0.9944        -7.43         3.017E-4      106.94        3.456E-4      103.20        0.99611       -7.60          
35.0450       0.99438       -7.42         3.30E-4       103.84        3.419E-4      103.81        0.99616       -7.60          
35.0463       0.99439       -7.43         2.538E-4      119.18        2.941E-4      102.11        0.99616       -7.60          
35.0475       0.99438       -7.43         3.279E-4      104.16        2.922E-4      110.16        0.99612       -7.60          
35.0488       0.99445       -7.43         3.134E-4      112.13        3.083E-4      96.24         0.99618       -7.60          
35.0500       0.99438       -7.43         3.073E-4      97.59         2.907E-4      106.16        0.99615       -7.61          
35.0513       0.99443       -7.43         2.859E-4      98.89         2.702E-4      114.22        0.99617       -7.61          
35.0525       0.99442       -7.43         2.613E-4      102.55        3.112E-4      100.72        0.99615       -7.61          
35.0538       0.99437       -7.43         2.953E-4      97.85         3.361E-4      95.41         0.9962        -7.61          
35.0550       0.99433       -7.43         3.394E-4      113.86        3.815E-4      111.57        0.99619       -7.61          
35.0563       0.99432       -7.43         3.625E-4      105.83        3.235E-4      102.66        0.99617       -7.61          
35.0575       0.99437       -7.43         3.096E-4      101.23        3.018E-4      108.44        0.99615       -7.61          
35.0588       0.99438       -7.43         2.966E-4      102.90        3.113E-4      108.47        0.99616       -7.61          
35.0600       0.99435       -7.43         3.829E-4      105.89        3.384E-4      108.35        0.99618       -7.61          
35.0613       0.99438       -7.43         2.31E-4       107.16        3.455E-4      109.02        0.99617       -7.62          
35.0625       0.99434       -7.43         3.045E-4      102.86        2.988E-4      105.23        0.99615       -7.62          
35.0638       0.99436       -7.43         2.599E-4      94.24         2.987E-4      96.59         0.99614       -7.62          
35.0650       0.99435       -7.43         2.883E-4      103.66        3.229E-4      105.51        0.99612       -7.62          
35.0663       0.99432       -7.43         2.584E-4      109.65        3.175E-4      112.04        0.99614       -7.62          
35.0675       0.99435       -7.43         2.248E-4      105.63        2.768E-4      117.72        0.99613       -7.62          
35.0688       0.99434       -7.43         2.432E-4      92.40         3.178E-4      103.17        0.9962        -7.62          
35.0700       0.99443       -7.43         2.621E-4      100.77        3.01E-4       98.24         0.99614       -7.62          
35.0713       0.99434       -7.44         3.468E-4      106.69        3.165E-4      89.59         0.99614       -7.62          
35.0725       0.99435       -7.43         3.187E-4      104.00        3.556E-4      103.79        0.99617       -7.63          
35.0738       0.99434       -7.43         2.586E-4      89.11         3.005E-4      104.25        0.99614       -7.62          
35.0750       0.99431       -7.43         1.883E-4      100.93        3.417E-4      91.17         0.99616       -7.63          
35.0763       0.99437       -7.43         2.50E-4       112.98        3.445E-4      96.60         0.99613       -7.63          
35.0775       0.99438       -7.43         3.452E-4      100.37        2.709E-4      102.33        0.99614       -7.63          
35.0788       0.99437       -7.43         3.013E-4      95.10         3.754E-4      94.97         0.99615       -7.63          
35.0800       0.99439       -7.43         3.227E-4      94.15         3.46E-4       98.90         0.99611       -7.63          
35.0813       0.99436       -7.43         3.006E-4      92.52         3.693E-4      106.00        0.9961        -7.63          
35.0825       0.9944        -7.43         3.04E-4       96.93         3.298E-4      107.52        0.99613       -7.63          
35.0838       0.99437       -7.43         2.519E-4      107.75        3.30E-4       99.53         0.99611       -7.63          
35.0850       0.99438       -7.43         2.962E-4      85.55         3.588E-4      93.26         0.99615       -7.63          
35.0863       0.9944        -7.44         3.027E-4      101.55        3.604E-4      96.15         0.99612       -7.63          
35.0875       0.9944        -7.43         2.746E-4      102.41        3.946E-4      92.67         0.99613       -7.63          
35.0888       0.99439       -7.44         3.177E-4      99.62         2.44E-4       96.14         0.99614       -7.63          
35.0900       0.99445       -7.43         3.181E-4      92.46         3.408E-4      98.96         0.99614       -7.63          
35.0913       0.99446       -7.43         3.688E-4      96.85         3.788E-4      114.49        0.99611       -7.64          
35.0925       0.99446       -7.43         3.21E-4       97.78         3.231E-4      102.53        0.99611       -7.63          
35.0938       0.99444       -7.43         3.073E-4      108.10        3.101E-4      102.17        0.99617       -7.64          
35.0950       0.99442       -7.43         3.066E-4      83.87         2.965E-4      106.78        0.99611       -7.64          
35.0963       0.99447       -7.44         2.99E-4       87.84         3.24E-4       105.73        0.99612       -7.64          
35.0975       0.99448       -7.44         2.937E-4      95.99         3.088E-4      98.67         0.99612       -7.64          
35.0988       0.99447       -7.44         2.669E-4      91.04         3.692E-4      102.39        0.9961        -7.64          
35.1000       0.99448       -7.44         3.273E-4      88.80         3.41E-4       99.82         0.99614       -7.64          
35.1013       0.99448       -7.44         3.463E-4      85.95         3.452E-4      97.12         0.99614       -7.64          
35.1025       0.99451       -7.44         3.058E-4      83.86         3.366E-4      110.69        0.99611       -7.64          
35.1038       0.99451       -7.44         2.439E-4      115.13        4.142E-4      95.14         0.99614       -7.64          
35.1050       0.99457       -7.44         3.475E-4      91.44         3.186E-4      91.27         0.99611       -7.64          
35.1063       0.99456       -7.44         3.225E-4      84.61         3.066E-4      92.31         0.99612       -7.64          
35.1075       0.99453       -7.44         2.636E-4      104.53        3.64E-4       92.47         0.99609       -7.64          
35.1088       0.99454       -7.44         2.272E-4      102.96        3.164E-4      92.81         0.9961        -7.64          
35.1100       0.99458       -7.44         2.81E-4       96.43         3.127E-4      95.41         0.99608       -7.64          
35.1113       0.99455       -7.44         2.891E-4      93.53         4.02E-4       96.84         0.99615       -7.64          
35.1125       0.99458       -7.45         2.712E-4      88.25         3.645E-4      101.70        0.99614       -7.64          
35.1138       0.99461       -7.44         3.565E-4      111.22        3.578E-4      103.49        0.99617       -7.65          
35.1150       0.99458       -7.45         3.289E-4      90.72         3.414E-4      101.71        0.9962        -7.65          
35.1163       0.99459       -7.45         3.38E-4       96.35         3.787E-4      96.52         0.99618       -7.64          
35.1175       0.99464       -7.45         2.31E-4       81.43         3.03E-4       94.44         0.99615       -7.64          
35.1188       0.99461       -7.45         2.215E-4      106.16        3.38E-4       99.78         0.99619       -7.65          
35.1200       0.99461       -7.45         2.323E-4      111.23        3.429E-4      107.60        0.99616       -7.65          
35.1213       0.99464       -7.45         2.716E-4      100.57        3.478E-4      94.24         0.99618       -7.65          
35.1225       0.9946        -7.45         2.608E-4      88.24         3.67E-4       89.21         0.99618       -7.65          
35.1238       0.99459       -7.45         2.961E-4      104.68        3.744E-4      101.52        0.99617       -7.65          
35.1250       0.9946        -7.45         2.215E-4      102.18        3.273E-4      95.55         0.99616       -7.65          
35.1263       0.99464       -7.45         2.921E-4      106.69        3.588E-4      88.21         0.99614       -7.65          
35.1275       0.99463       -7.45         3.47E-4       106.28        4.003E-4      90.03         0.99613       -7.65          
35.1288       0.99465       -7.45         3.227E-4      98.54         3.353E-4      98.58         0.99616       -7.65          
35.1300       0.9947        -7.46         2.682E-4      64.45         2.894E-4      99.96         0.99615       -7.66          
35.1313       0.99466       -7.45         2.817E-4      97.04         3.687E-4      102.80        0.99615       -7.65          
35.1325       0.99466       -7.45         3.708E-4      90.62         3.11E-4       105.69        0.99619       -7.66          
35.1338       0.99469       -7.45         2.303E-4      109.31        3.537E-4      106.91        0.99618       -7.66          
35.1350       0.99466       -7.46         2.946E-4      81.66         3.274E-4      105.80        0.99618       -7.66          
35.1363       0.99464       -7.46         2.501E-4      114.81        3.211E-4      95.25         0.99617       -7.66          
35.1375       0.99469       -7.46         3.077E-4      98.40         2.857E-4      95.90         0.99615       -7.66          
35.1388       0.99467       -7.46         3.21E-4       104.29        3.511E-4      96.41         0.99616       -7.66          
35.1400       0.99469       -7.46         2.125E-4      106.97        3.636E-4      94.61         0.99618       -7.66          
35.1413       0.99471       -7.46         3.241E-4      97.85         3.398E-4      107.51        0.99618       -7.66          
35.1425       0.99467       -7.46         3.465E-4      92.71         3.242E-4      102.42        0.99618       -7.66          
35.1438       0.99468       -7.46         2.664E-4      81.69         3.416E-4      93.23         0.99617       -7.67          
35.1450       0.99468       -7.46         1.975E-4      104.43        3.074E-4      102.10        0.99613       -7.67          
35.1463       0.9947        -7.46         3.256E-4      85.16         2.78E-4       91.50         0.99614       -7.67          
35.1475       0.99467       -7.46         3.662E-4      82.34         3.251E-4      100.58        0.99611       -7.66          
35.1488       0.99471       -7.46         3.123E-4      95.36         3.52E-4       97.56         0.99609       -7.67          
35.1500       0.99468       -7.46         2.603E-4      92.49         3.592E-4      95.04         0.99614       -7.67          
35.1513       0.9947        -7.46         3.231E-4      98.47         2.788E-4      106.36        0.99615       -7.67          
35.1525       0.99468       -7.47         3.518E-4      94.68         3.093E-4      100.73        0.99611       -7.67          
35.1538       0.99469       -7.46         3.845E-4      97.12         3.665E-4      92.41         0.99614       -7.67          
35.1550       0.99467       -7.47         3.828E-4      93.14         3.164E-4      94.45         0.9961        -7.67          
35.1563       0.99469       -7.47         2.951E-4      88.32         3.379E-4      94.01         0.99615       -7.67          
35.1575       0.99472       -7.47         3.039E-4      88.63         3.67E-4       99.31         0.99613       -7.67          
35.1588       0.99471       -7.47         2.971E-4      106.67        3.174E-4      97.38         0.99619       -7.67          
35.1600       0.99466       -7.47         3.502E-4      107.56        3.473E-4      97.88         0.99615       -7.67          
35.1613       0.99472       -7.47         3.61E-4       92.21         3.847E-4      95.47         0.99616       -7.67          
35.1625       0.9947        -7.47         3.331E-4      102.48        3.772E-4      93.10         0.99616       -7.67          
35.1638       0.99475       -7.47         2.76E-4       117.43        3.618E-4      86.67         0.99618       -7.67          
35.1650       0.9947        -7.47         2.824E-4      105.98        3.616E-4      92.00         0.99611       -7.68          
35.1663       0.99471       -7.47         3.17E-4       98.73         3.691E-4      85.20         0.99619       -7.68          
35.1675       0.99471       -7.47         2.218E-4      92.43         3.751E-4      99.39         0.99622       -7.68          
35.1688       0.99474       -7.47         3.108E-4      83.18         3.976E-4      95.72         0.99615       -7.68          
35.1700       0.99474       -7.48         2.813E-4      101.10        3.928E-4      103.29        0.99616       -7.68          
35.1713       0.99474       -7.48         3.267E-4      87.80         3.796E-4      94.23         0.99617       -7.68          
35.1725       0.99475       -7.48         3.799E-4      98.93         3.63E-4       94.71         0.99615       -7.68          
35.1738       0.99472       -7.48         2.811E-4      79.34         3.138E-4      101.19        0.99619       -7.68          
35.1750       0.99477       -7.48         3.29E-4       96.99         3.775E-4      92.25         0.99619       -7.68          
35.1763       0.99474       -7.48         3.662E-4      96.13         3.683E-4      91.66         0.99615       -7.68          
35.1775       0.99476       -7.48         2.702E-4      92.11         3.659E-4      99.87         0.9962        -7.69          
35.1788       0.99475       -7.48         3.089E-4      102.27        3.049E-4      101.16        0.99615       -7.69          
35.1800       0.99476       -7.48         3.09E-4       97.96         3.086E-4      104.86        0.99617       -7.69          
35.1813       0.99474       -7.48         2.659E-4      74.36         3.634E-4      96.53         0.99619       -7.69          
35.1825       0.99472       -7.48         3.206E-4      77.41         3.712E-4      105.84        0.99614       -7.69          
35.1838       0.99476       -7.49         3.841E-4      102.04        3.792E-4      97.15         0.99619       -7.69          
35.1850       0.99474       -7.49         3.281E-4      104.89        4.26E-4       91.70         0.99615       -7.70          
35.1863       0.99472       -7.48         3.142E-4      93.37         3.904E-4      94.19         0.99613       -7.69          
35.1875       0.99473       -7.49         3.632E-4      115.89        3.89E-4       93.33         0.99615       -7.70          
35.1888       0.99471       -7.49         3.877E-4      91.64         3.766E-4      92.76         0.99613       -7.70          
35.1900       0.99473       -7.49         3.761E-4      89.21         4.025E-4      105.63        0.99615       -7.70          
35.1913       0.9947        -7.49         3.957E-4      94.79         4.61E-4       102.26        0.9961        -7.70          
