!    23/08/2022   12:25:10 PM 
! Ref Plane: 0.000 mm
# MHZ S MA R  50
!
30.0000       0.99659       -6.35         2.195E-4      128.41        2.219E-4      143.67        0.99703       -6.39          
30.0350       0.99696       -6.35         9.184E-5      98.67         1.812E-4      94.36         0.99723       -6.40          
30.0700       0.99694       -6.37         1.447E-4      77.07         1.517E-4      89.72         0.99733       -6.43          
30.1050       0.99696       -6.38         4.831E-5      86.85         1.087E-4      78.10         0.99731       -6.46          
30.1400       0.99688       -6.39         1.182E-4      64.78         1.273E-4      86.15         0.99693       -6.48          
30.1750       0.99694       -6.41         1.071E-4      86.58         1.329E-4      104.86        0.99645       -6.49          
30.2100       0.99669       -6.43         1.45E-4       85.09         1.52E-4       82.66         0.99611       -6.49          
30.2450       0.99629       -6.44         2.658E-4      93.09         1.856E-4      86.52         0.99536       -6.48          
30.2800       0.99604       -6.42         1.953E-4      65.40         2.335E-4      60.06         0.99566       -6.43          
30.3150       0.99642       -6.41         1.899E-4      35.61         1.737E-4      51.88         0.99623       -6.44          
30.3500       0.99671       -6.41         1.755E-4      46.87         1.728E-4      44.61         0.99651       -6.44          
30.3850       0.99691       -6.43         1.832E-4      44.82         1.968E-4      55.79         0.99676       -6.45          
30.4200       0.99705       -6.45         1.861E-4      55.68         1.831E-4      49.55         0.99702       -6.47          
30.4550       0.99701       -6.48         1.689E-4      37.21         2.531E-4      48.22         0.99707       -6.50          
30.4900       0.99673       -6.50         1.632E-4      43.89         1.599E-4      29.22         0.997         -6.51          
30.5250       0.99624       -6.50         1.534E-4      17.07         2.151E-4      17.84         0.99701       -6.52          
30.5600       0.99633       -6.48         1.588E-4      9.79          1.036E-4      17.91         0.99692       -6.54          
30.5950       0.99658       -6.49         1.416E-4      28.55         1.886E-4      24.47         0.99677       -6.55          
30.6300       0.99676       -6.50         1.269E-4      -14.87        1.597E-4      3.43          0.99674       -6.56          
30.6650       0.99669       -6.52         1.004E-4      26.91         8.271E-5      -0.68         0.99662       -6.57          
30.7000       0.99666       -6.53         1.082E-4      -23.68        1.662E-4      -14.44        0.99632       -6.57          
30.7350       0.99658       -6.55         1.899E-5      -46.99        1.146E-4      -73.47        0.9964        -6.56          
30.7700       0.99636       -6.56         9.556E-6      -155.47       4.946E-5      65.32         0.99672       -6.56          
30.8050       0.9961        -6.56         1.171E-4      106.25        7.552E-5      102.78        0.99696       -6.58          
30.8400       0.99625       -6.56         1.633E-4      63.46         9.75E-5       71.80         0.99713       -6.59          
30.8750       0.99608       -6.58         1.675E-4      70.85         1.829E-4      55.97         0.99718       -6.62          
30.9100       0.99583       -6.58         2.017E-4      26.20         1.861E-4      38.12         0.99704       -6.64          
30.9450       0.996         -6.58         1.462E-4      37.99         1.271E-4      29.95         0.99693       -6.66          
30.9800       0.99611       -6.58         3.30E-4       37.00         2.653E-4      23.85         0.99658       -6.69          
31.0150       0.99598       -6.60         2.541E-4      -13.05        2.576E-4      -2.36         0.99594       -6.68          
31.0500       0.99581       -6.60         1.231E-4      -21.10        1.053E-4      -16.58        0.99601       -6.66          
31.0850       0.99597       -6.59         1.917E-4      15.18         1.451E-4      17.95         0.99624       -6.66          
31.1200       0.9963        -6.60         1.956E-4      17.26         2.505E-4      14.01         0.99643       -6.67          
31.1550       0.99633       -6.63         2.402E-4      8.28          3.063E-4      -4.17         0.9966        -6.70          
31.1900       0.99628       -6.64         2.745E-4      -16.43        2.448E-4      -26.96        0.99649       -6.72          
31.2250       0.9964        -6.65         1.809E-4      -8.08         1.765E-4      -8.78         0.99642       -6.73          
31.2600       0.99648       -6.67         2.06E-4       0.34          2.129E-4      9.03          0.99639       -6.74          
31.2950       0.99655       -6.69         4.118E-4      -9.04         3.76E-4       -5.17         0.99648       -6.77          
31.3300       0.99657       -6.73         3.75E-4       -39.10        3.913E-4      -29.68        0.99629       -6.81          
31.3650       0.99659       -6.80         4.623E-4      -39.30        4.705E-4      -44.73        0.99608       -6.87          
31.4000       0.99391       -6.84         1.21E-3       -85.29        1.204E-3      -84.35        0.9934        -6.89          
31.4350       0.98923       -6.63         2.272E-3      113.26        2.261E-3      113.78        0.9886        -6.76          
31.4700       0.99415       -6.60         1.391E-3      -9.44         1.406E-3      -9.95         0.99279       -6.62          
31.5050       0.99447       -6.65         1.115E-3      -75.73        1.112E-3      -72.35        0.99395       -6.62          
31.5400       0.99445       -6.64         8.058E-4      -109.29       7.984E-4      -110.56       0.9943        -6.61          
31.5750       0.99472       -6.62         3.801E-4      -155.66       4.351E-4      -157.41       0.99538       -6.61          
31.6100       0.99534       -6.63         1.283E-4      -118.86       1.468E-4      -116.15       0.99608       -6.65          
31.6450       0.99562       -6.65         1.654E-4      -79.69        1.574E-4      -97.90        0.9962        -6.69          
31.6800       0.99576       -6.67         2.445E-4      -61.18        3.538E-4      -75.61        0.99609       -6.72          
31.7150       0.99581       -6.69         4.311E-4      -92.45        4.017E-4      -91.27        0.99607       -6.71          
31.7500       0.99606       -6.69         3.827E-4      -91.24        3.682E-4      -107.75       0.99644       -6.73          
31.7850       0.99616       -6.72         3.427E-4      -114.05       3.86E-4       -111.79       0.99659       -6.76          
31.8200       0.99613       -6.74         4.612E-4      -118.37       4.713E-4      -110.64       0.99647       -6.79          
31.8550       0.99582       -6.77         4.759E-4      -123.25       5.284E-4      -127.93       0.99623       -6.81          
31.8900       0.99563       -6.76         4.373E-4      -141.88       4.384E-4      -136.12       0.99588       -6.80          
31.9250       0.99582       -6.77         6.26E-4       -121.70       5.337E-4      -126.83       0.9959        -6.79          
31.9600       0.99587       -6.81         5.996E-4      -143.39       6.01E-4       -139.99       0.99645       -6.81          
31.9950       0.99444       -6.78         5.22E-4       175.20        5.75E-4       176.63        0.99636       -6.84          
32.0300       0.9955        -6.77         3.476E-4      -134.44       3.651E-4      -131.21       0.99639       -6.86          
32.0650       0.99558       -6.79         5.769E-4      -154.37       6.131E-4      -149.43       0.99593       -6.91          
32.1000       0.99525       -6.80         7.055E-4      179.28        7.498E-4      175.94        0.99399       -6.85          
32.1350       0.9956        -6.80         4.774E-4      -169.46       4.574E-4      -172.15       0.99563       -6.82          
32.1700       0.99559       -6.83         4.664E-4      174.45        5.55E-4       -178.95       0.99596       -6.86          
32.2050       0.99484       -6.84         4.816E-4      -179.85       5.321E-4      -174.15       0.99601       -6.89          
32.2400       0.99513       -6.81         8.53E-4       172.87        8.283E-4      172.51        0.99546       -6.91          
32.2750       0.9955        -6.82         6.522E-4      143.25        6.519E-4      136.10        0.99496       -6.90          
32.3100       0.99555       -6.84         4.594E-4      151.20        5.043E-4      148.70        0.99557       -6.86          
32.3450       0.99535       -6.85         5.523E-4      153.00        5.662E-4      154.68        0.99576       -6.91          
32.3800       0.99538       -6.84         5.409E-4      129.44        6.187E-4      128.91        0.99493       -6.90          
32.4150       0.99575       -6.86         4.132E-4      141.11        4.758E-4      139.41        0.99564       -6.88          
32.4500       0.99561       -6.90         3.627E-4      135.09        5.065E-4      139.27        0.99569       -6.91          
32.4850       0.99476       -6.90         4.241E-4      132.58        5.219E-4      131.82        0.99569       -6.93          
32.5200       0.99458       -6.87         4.909E-4      136.48        4.707E-4      135.56        0.995         -6.95          
32.5550       0.99476       -6.83         6.382E-4      137.30        7.308E-4      139.87        0.99483       -6.90          
32.5900       0.99561       -6.84         5.52E-4       118.82        6.228E-4      118.74        0.99531       -6.88          
32.6250       0.99591       -6.87         6.645E-4      111.77        6.537E-4      117.52        0.99588       -6.88          
32.6600       0.99578       -6.89         6.93E-4       101.96        6.793E-4      104.21        0.99623       -6.91          
32.6950       0.99555       -6.89         5.504E-4      93.71         5.681E-4      94.18         0.99619       -6.93          
32.7300       0.99584       -6.90         5.927E-4      97.13         5.815E-4      99.98         0.99638       -6.95          
32.7650       0.99594       -6.91         5.309E-4      97.72         6.058E-4      94.34         0.99626       -6.96          
32.8000       0.99613       -6.92         6.214E-4      91.53         6.631E-4      88.40         0.99629       -6.96          
32.8350       0.99602       -6.95         5.755E-4      80.30         6.499E-4      77.29         0.9964        -6.98          
32.8700       0.99578       -6.96         5.514E-4      70.75         5.814E-4      69.32         0.99649       -6.99          
32.9050       0.99557       -6.95         5.409E-4      67.25         5.245E-4      74.46         0.99672       -7.00          
32.9400       0.99581       -6.95         6.236E-4      65.28         6.163E-4      64.77         0.99671       -7.03          
32.9750       0.99608       -6.96         5.989E-4      52.05         6.046E-4      53.29         0.99655       -7.05          
33.0100       0.99617       -6.98         5.014E-4      54.36         4.747E-4      60.63         0.99627       -7.07          
33.0450       0.99602       -7.00         4.988E-4      49.83         5.674E-4      52.12         0.99591       -7.07          
33.0800       0.99593       -6.99         5.029E-4      47.17         5.346E-4      51.98         0.99583       -7.06          
33.1150       0.99611       -7.01         5.451E-4      39.49         5.215E-4      43.75         0.99586       -7.06          
33.1500       0.99612       -7.02         5.302E-4      30.18         4.88E-4       33.79         0.99602       -7.06          
33.1850       0.99625       -7.04         4.223E-4      32.06         4.045E-4      33.83         0.99619       -7.08          
33.2200       0.99611       -7.06         4.249E-4      25.64         5.195E-4      20.64         0.99624       -7.09          
33.2550       0.99561       -7.06         3.986E-4      34.73         3.964E-4      26.17         0.99595       -7.09          
33.2900       0.99575       -7.04         4.758E-4      10.84         5.205E-4      16.84         0.99629       -7.09          
33.3250       0.99599       -7.05         4.369E-4      2.63          4.492E-4      0.84          0.99622       -7.11          
33.3600       0.99617       -7.06         2.508E-4      15.71         3.291E-4      14.81         0.99637       -7.11          
33.3950       0.99637       -7.08         3.712E-4      22.36         4.43E-4       20.22         0.99653       -7.12          
33.4300       0.9964        -7.09         3.955E-4      9.25          4.222E-4      10.65         0.99647       -7.14          
33.4650       0.99641       -7.11         4.371E-4      -1.94         4.906E-4      -0.55         0.99645       -7.15          
33.5000       0.99644       -7.12         4.013E-4      -21.95        3.794E-4      -21.19        0.99635       -7.15          
33.5350       0.99639       -7.15         2.667E-4      -12.18        2.989E-4      -19.55        0.99649       -7.15          
33.5700       0.99613       -7.17         3.099E-4      -11.17        3.678E-4      -9.37         0.99664       -7.16          
33.6050       0.9959        -7.17         2.993E-4      -24.95        3.524E-4      -24.99        0.99683       -7.17          
33.6400       0.99582       -7.18         3.307E-4      -34.64        2.753E-4      -27.67        0.99695       -7.19          
33.6750       0.99578       -7.18         2.923E-4      -33.43        2.864E-4      -37.67        0.99697       -7.22          
33.7100       0.99572       -7.19         1.796E-4      -37.09        2.358E-4      -50.66        0.9968        -7.23          
33.7450       0.99546       -7.18         1.916E-4      -41.79        1.887E-4      -47.88        0.9969        -7.24          
33.7800       0.9956        -7.18         2.247E-4      -74.31        1.948E-4      -52.74        0.99682       -7.26          
33.8150       0.99604       -7.18         1.299E-4      -25.50        1.823E-4      -38.96        0.99673       -7.28          
33.8500       0.99626       -7.20         1.24E-4       -35.15        2.20E-4       -36.02        0.99648       -7.30          
33.8850       0.99633       -7.22         2.292E-4      -38.81        2.268E-4      -47.93        0.99618       -7.31          
33.9200       0.99643       -7.24         2.525E-4      -58.79        2.571E-4      -70.49        0.99594       -7.31          
33.9550       0.99645       -7.27         1.542E-4      -94.07        2.051E-4      -100.19       0.99605       -7.29          
33.9900       0.99637       -7.29         1.387E-4      -58.66        1.456E-4      -97.70        0.99633       -7.30          
34.0250       0.99629       -7.31         1.18E-4       -108.55       1.193E-4      -100.31       0.99653       -7.32          
34.0600       0.99612       -7.34         9.418E-5      -114.74       1.019E-4      -126.58       0.99652       -7.33          
34.0950       0.99572       -7.36         4.081E-5      -168.64       7.808E-5      -132.24       0.99652       -7.36          
34.1300       0.99516       -7.38         1.12E-4       -109.18       1.55E-4       -63.51        0.99654       -7.39          
34.1650       0.99462       -7.38         2.219E-4      -77.36        1.716E-4      -86.71        0.99599       -7.42          
34.2000       0.99415       -7.37         3.725E-4      -114.47       3.711E-4      -127.28       0.99507       -7.40          
34.2350       0.9932        -7.35         3.788E-4      -168.45       4.051E-4      -171.61       0.99593       -7.38          
34.2700       0.9939        -7.26         6.076E-4      128.42        6.784E-4      125.37        0.99633       -7.43          
34.3050       0.99432       -7.25         4.409E-4      4.93          4.518E-4      1.60          0.99562       -7.47          
34.3400       0.99509       -7.27         5.266E-4      81.59         5.664E-4      83.54         0.99366       -7.52          
34.3750       0.99528       -7.29         4.426E-4      -74.36        4.678E-4      -73.75        0.99445       -7.37          
34.4100       0.99547       -7.30         9.913E-5      137.70        1.369E-4      126.85        0.99478       -7.39          
34.4450       0.99561       -7.33         1.521E-4      -115.02       1.58E-4       -96.96        0.99482       -7.36          
34.4800       0.9957        -7.34         1.944E-4      -154.51       1.60E-4       -146.07       0.99551       -7.38          
34.5150       0.99579       -7.36         1.448E-4      -175.67       1.804E-4      175.42        0.99558       -7.41          
34.5500       0.9957        -7.38         1.869E-4      147.93        1.585E-4      163.20        0.99543       -7.42          
34.5850       0.99542       -7.39         1.325E-4      177.79        1.05E-4       149.46        0.99524       -7.43          
34.6200       0.99536       -7.39         1.977E-4      159.30        1.688E-4      155.35        0.99523       -7.43          
34.6550       0.99543       -7.40         1.88E-4       109.16        2.146E-4      123.86        0.99525       -7.44          
34.6900       0.99534       -7.40         8.007E-5      99.40         1.352E-4      120.91        0.9954        -7.43          
34.7250       0.99552       -7.40         1.411E-4      148.44        1.459E-4      143.76        0.99586       -7.44          
34.7600       0.99567       -7.41         1.948E-4      142.36        2.719E-4      144.81        0.99599       -7.46          
34.7950       0.99588       -7.42         2.659E-4      103.41        3.067E-4      115.05        0.99597       -7.48          
34.8300       0.99596       -7.43         1.812E-4      94.78         2.825E-4      95.03         0.99599       -7.48          
34.8650       0.99623       -7.44         1.967E-4      82.05         2.291E-4      86.44         0.9962        -7.51          
34.9000       0.99628       -7.46         1.693E-4      94.35         1.548E-4      87.75         0.99594       -7.53          
34.9350       0.99632       -7.48         9.161E-5      112.94        1.364E-4      111.99        0.99575       -7.52          
34.9700       0.99631       -7.49         1.891E-4      102.52        2.12E-4       120.69        0.99603       -7.52          
35.0050       0.99643       -7.51         1.849E-4      93.12         2.615E-4      103.54        0.99626       -7.53          
35.0400       0.99655       -7.53         2.436E-4      98.08         2.626E-4      91.53         0.99652       -7.55          
35.0750       0.99652       -7.56         2.555E-4      92.24         2.715E-4      94.90         0.99662       -7.57          
35.1100       0.99648       -7.58         2.432E-4      96.95         2.961E-4      91.63         0.99664       -7.60          
35.1450       0.99629       -7.61         3.354E-4      97.25         2.797E-4      85.07         0.99654       -7.62          
35.1800       0.99609       -7.63         2.895E-4      83.50         3.269E-4      93.19         0.9965        -7.63          
35.2150       0.99564       -7.64         3.149E-4      89.45         3.614E-4      81.88         0.99651       -7.64          
35.2500       0.99536       -7.64         3.542E-4      93.21         3.718E-4      92.80         0.99641       -7.67          
35.2850       0.99529       -7.63         4.348E-4      86.60         4.008E-4      92.50         0.99626       -7.68          
35.3200       0.99548       -7.63         4.94E-4       77.38         4.754E-4      79.25         0.99622       -7.69          
35.3550       0.99568       -7.64         5.196E-4      64.93         5.045E-4      65.98         0.99615       -7.70          
