!    23/08/2022   1:14:08 PM 
! Ref Plane: 0.000 mm
# MHZ S MA R  50
!
30.0000       0.9968        -6.44         2.04E-4       60.66         1.729E-4      71.50         0.9966        -6.33          
30.0350       0.99686       -6.45         1.366E-4      38.85         1.901E-4      56.45         0.99707       -6.33          
30.0700       0.99665       -6.45         1.399E-4      -0.21         8.988E-5      2.51          0.99719       -6.37          
30.1050       0.9966        -6.46         4.747E-5      150.45        3.569E-5      99.78         0.99693       -6.41          
30.1400       0.9965        -6.47         5.795E-5      71.83         6.50E-5       65.64         0.99658       -6.43          
30.1750       0.99644       -6.47         3.76E-5       -159.54       6.502E-5      -174.62       0.99577       -6.47          
30.2100       0.99656       -6.46         2.557E-4      146.65        2.837E-4      149.55        0.99426       -6.42          
30.2450       0.99674       -6.48         4.803E-4      90.44         3.919E-4      82.97         0.99461       -6.34          
30.2800       0.99665       -6.49         1.345E-4      55.93         1.668E-4      52.93         0.99531       -6.33          
30.3150       0.99661       -6.50         1.699E-4      62.06         2.057E-4      83.25         0.99575       -6.34          
30.3500       0.99672       -6.51         3.179E-4      60.85         3.485E-4      66.67         0.99601       -6.34          
30.3850       0.9968        -6.52         3.125E-4      31.65         3.144E-4      34.38         0.99645       -6.35          
30.4200       0.99681       -6.54         2.616E-4      16.24         2.561E-4      15.13         0.99686       -6.37          
30.4550       0.9966        -6.55         1.161E-4      4.06          2.132E-4      20.66         0.99688       -6.40          
30.4900       0.99654       -6.55         8.995E-5      16.69         1.034E-4      1.54          0.99671       -6.42          
30.5250       0.9966        -6.56         8.091E-5      24.27         1.288E-4      13.91         0.99667       -6.41          
30.5600       0.99665       -6.57         1.566E-4      48.62         1.299E-4      48.31         0.99698       -6.42          
30.5950       0.99639       -6.60         9.94E-5       25.29         1.696E-4      17.20         0.9971        -6.44          
30.6300       0.99601       -6.58         1.634E-5      5.16          5.113E-5      59.20         0.99711       -6.46          
30.6650       0.99628       -6.59         1.645E-4      77.03         1.411E-4      75.46         0.99709       -6.48          
30.7000       0.99612       -6.60         1.985E-4      51.16         3.345E-4      45.03         0.99695       -6.50          
30.7350       0.99602       -6.61         2.003E-4      -1.44         2.891E-4      -23.45        0.99685       -6.51          
30.7700       0.99599       -6.61         2.707E-5      -41.28        6.245E-5      36.38         0.99676       -6.52          
30.8050       0.99585       -6.61         1.868E-4      77.33         1.536E-4      64.77         0.99656       -6.54          
30.8400       0.99596       -6.61         2.429E-4      14.18         2.287E-4      -2.53         0.99646       -6.54          
30.8750       0.99611       -6.61         5.14E-5       40.83         8.98E-5       13.02         0.99657       -6.55          
30.9100       0.99628       -6.62         1.941E-4      29.95         1.832E-4      48.37         0.99654       -6.58          
30.9450       0.99648       -6.64         1.562E-4      -5.33         2.00E-4       -17.81        0.99612       -6.59          
30.9800       0.99636       -6.64         1.628E-4      33.53         1.343E-4      -2.72         0.9957        -6.59          
31.0150       0.99649       -6.66         1.199E-4      29.70         1.591E-4      47.00         0.99562       -6.58          
31.0500       0.99637       -6.68         2.77E-4       22.65         2.73E-4       21.60         0.99576       -6.57          
31.0850       0.99605       -6.68         3.299E-4      -1.20         3.005E-4      -11.56        0.99562       -6.57          
31.1200       0.99643       -6.68         1.989E-4      -37.97        2.125E-4      -32.53        0.99593       -6.57          
31.1550       0.99648       -6.70         1.055E-4      45.38         1.348E-4      -18.61        0.99594       -6.59          
31.1900       0.99646       -6.71         2.792E-4      2.44          2.272E-4      -5.32         0.99608       -6.60          
31.2250       0.99648       -6.73         2.234E-4      -15.10        2.607E-4      -25.14        0.99604       -6.61          
31.2600       0.99642       -6.75         1.455E-4      -36.37        1.238E-4      -30.03        0.99604       -6.62          
31.2950       0.99636       -6.78         2.93E-4       -14.60        2.817E-4      -6.97         0.9961        -6.64          
31.3300       0.99617       -6.79         3.076E-4      -26.13        3.49E-4       -20.47        0.99609       -6.65          
31.3650       0.99597       -6.82         3.847E-4      -41.46        4.246E-4      -43.62        0.99631       -6.67          
31.4000       0.99587       -6.86         3.016E-4      -66.64        3.156E-4      -62.81        0.99644       -6.73          
31.4350       0.99113       -6.92         1.846E-4      -27.06        9.495E-5      -59.40        0.99403       -6.90          
31.4700       0.99248       -6.85         6.803E-4      175.70        6.782E-4      174.90        0.99169       -6.80          
31.5050       0.9937        -6.71         9.431E-4      12.52         1.019E-3      11.25         0.99381       -6.55          
31.5400       0.99404       -6.73         9.573E-4      -35.34        9.489E-4      -34.08        0.995         -6.59          
31.5750       0.99441       -6.71         7.639E-4      -86.12        8.306E-4      -90.24        0.99524       -6.61          
31.6100       0.99511       -6.71         5.961E-4      -110.43       6.099E-4      -108.58       0.9954        -6.63          
31.6450       0.99534       -6.73         2.511E-4      -137.52       2.93E-4       -148.38       0.99553       -6.65          
31.6800       0.99543       -6.75         1.78E-4       -64.19        3.109E-4      -77.55        0.99593       -6.66          
31.7150       0.99561       -6.76         4.277E-4      -90.66        3.866E-4      -89.77        0.99572       -6.69          
31.7500       0.99583       -6.77         3.795E-4      -104.14       3.766E-4      -116.63       0.99564       -6.70          
31.7850       0.99563       -6.78         2.686E-4      -113.10       3.601E-4      -105.36       0.99547       -6.72          
31.8200       0.99581       -6.78         3.295E-4      -115.24       3.62E-4       -104.69       0.9951        -6.72          
31.8550       0.99609       -6.81         6.067E-4      -110.56       6.246E-4      -117.33       0.99538       -6.71          
31.8900       0.99597       -6.83         6.04E-4       -140.46       6.145E-4      -136.59       0.99512       -6.71          
31.9250       0.99597       -6.84         4.548E-4      -138.26       4.011E-4      -153.83       0.99562       -6.71          
31.9600       0.99594       -6.85         4.616E-4      -132.65       4.703E-4      -133.19       0.99588       -6.72          
31.9950       0.99622       -6.87         5.949E-4      -146.49       6.364E-4      -148.18       0.99595       -6.76          
32.0300       0.99509       -6.90         8.64E-4       165.57        8.742E-4      166.85        0.99491       -6.77          
32.0650       0.99574       -6.87         5.741E-5      -76.36        1.352E-4      -56.60        0.99568       -6.74          
32.1000       0.99573       -6.90         7.362E-4      -132.55       7.408E-4      -134.33       0.99589       -6.77          
32.1350       0.99517       -6.92         7.146E-4      -146.96       6.894E-4      -148.15       0.99553       -6.79          
32.1700       0.99554       -6.90         6.443E-4      166.38        7.415E-4      171.14        0.99567       -6.80          
32.2050       0.99526       -6.92         5.907E-4      167.08        6.375E-4      173.24        0.9954        -6.83          
32.2400       0.99512       -6.93         7.329E-4      166.03        7.294E-4      162.91        0.99441       -6.83          
32.2750       0.99501       -6.92         4.07E-4       139.15        4.333E-4      131.45        0.99448       -6.78          
32.3100       0.99514       -6.92         4.272E-4      168.75        4.873E-4      167.25        0.99533       -6.76          
32.3450       0.99535       -6.95         4.782E-4      165.19        5.166E-4      162.81        0.99569       -6.80          
32.3800       0.99394       -6.95         3.701E-4      164.82        3.989E-4      163.91        0.99536       -6.82          
32.4150       0.99465       -6.87         8.916E-4      166.09        9.20E-4       165.36        0.99557       -6.80          
32.4500       0.9956        -6.89         8.485E-4      131.56        9.472E-4      133.11        0.99579       -6.82          
32.4850       0.99561       -6.92         6.82E-4       105.67        7.53E-4       110.42        0.99595       -6.85          
32.5200       0.99602       -6.93         4.683E-4      107.75        4.458E-4      104.53        0.99562       -6.88          
32.5550       0.99608       -6.96         3.198E-4      129.57        3.837E-4      134.78        0.99462       -6.87          
32.5900       0.99602       -6.98         6.469E-4      138.57        7.169E-4      139.26        0.99529       -6.83          
32.6250       0.99588       -6.99         7.557E-4      104.65        7.187E-4      107.19        0.99572       -6.84          
32.6600       0.99576       -7.01         6.137E-4      94.92         6.398E-4      96.22         0.99586       -6.87          
32.6950       0.99532       -7.03         5.062E-4      106.41        4.936E-4      104.88        0.99558       -6.89          
32.7300       0.99448       -7.01         5.632E-4      95.15         5.734E-4      101.02        0.99513       -6.89          
32.7650       0.99508       -6.97         6.298E-4      113.84        6.997E-4      110.70        0.99523       -6.87          
32.8000       0.99552       -6.98         7.474E-4      88.11         7.76E-4       85.79         0.99569       -6.86          
32.8350       0.9959        -7.00         5.811E-4      89.59         6.22E-4       86.15         0.99595       -6.88          
32.8700       0.9959        -7.02         6.514E-4      75.40         6.796E-4      75.45         0.99625       -6.90          
32.9050       0.99557       -7.03         5.874E-4      66.28         5.328E-4      67.47         0.99618       -6.93          
32.9400       0.99575       -7.04         6.017E-4      72.35         5.968E-4      68.81         0.99603       -6.94          
32.9750       0.99571       -7.04         6.919E-4      72.86         6.798E-4      71.04         0.99598       -6.95          
33.0100       0.99577       -7.04         7.934E-4      54.44         7.304E-4      56.40         0.9959        -6.96          
33.0450       0.99606       -7.05         6.108E-4      42.93         6.463E-4      44.77         0.99593       -6.98          
33.0800       0.99614       -7.06         5.866E-4      30.24         6.485E-4      35.05         0.99552       -6.98          
33.1150       0.9963        -7.08         3.865E-4      22.53         4.015E-4      24.18         0.99558       -6.97          
33.1500       0.99623       -7.10         4.20E-4       50.26         4.075E-4      54.13         0.99587       -6.98          
33.1850       0.99629       -7.12         4.765E-4      47.30         5.055E-4      55.00         0.99594       -6.99          
33.2200       0.99627       -7.13         5.849E-4      34.49         6.291E-4      34.07         0.99619       -6.99          
33.2550       0.99633       -7.15         5.78E-4       19.27         5.532E-4      15.65         0.99625       -7.01          
33.2900       0.99614       -7.17         4.956E-4      11.03         5.343E-4      15.62         0.99617       -7.03          
33.3250       0.99556       -7.18         4.948E-4      2.86          5.283E-4      0.43          0.99594       -7.04          
33.3600       0.99523       -7.16         2.738E-4      -7.15         3.755E-4      -0.25         0.99615       -7.04          
33.3950       0.99564       -7.14         2.577E-4      18.34         3.494E-4      16.96         0.99621       -7.05          
33.4300       0.99601       -7.15         3.865E-4      2.29          3.963E-4      2.01          0.99625       -7.06          
33.4650       0.99616       -7.17         3.391E-4      8.33          4.011E-4      12.82         0.99613       -7.08          
33.5000       0.99625       -7.19         4.298E-4      -2.01         3.775E-4      -2.66         0.99598       -7.08          
33.5350       0.99606       -7.21         3.573E-4      -5.55         4.233E-4      -2.07         0.99622       -7.07          
33.5700       0.99576       -7.22         3.505E-4      -24.52        3.801E-4      -24.07        0.99643       -7.09          
33.6050       0.99588       -7.20         2.492E-4      -29.19        2.873E-4      -26.75        0.9966        -7.11          
33.6400       0.99622       -7.22         2.634E-4      -15.41        2.137E-4      -14.15        0.99654       -7.14          
33.6750       0.99629       -7.24         3.753E-4      -20.27        3.445E-4      -24.83        0.99639       -7.15          
33.7100       0.99636       -7.24         2.588E-4      -17.97        2.967E-4      -35.13        0.99626       -7.18          
33.7450       0.99637       -7.26         3.325E-4      -34.11        3.215E-4      -43.21        0.99562       -7.19          
33.7800       0.99644       -7.29         2.684E-4      -66.81        2.294E-4      -60.72        0.99546       -7.16          
33.8150       0.99625       -7.31         1.668E-4      -55.02        2.535E-4      -64.39        0.99584       -7.16          
33.8500       0.99596       -7.31         1.237E-4      -76.19        1.661E-4      -64.58        0.99597       -7.16          
33.8850       0.99607       -7.31         1.418E-4      -18.74        1.629E-4      -34.07        0.99617       -7.17          
33.9200       0.99605       -7.33         2.44E-4       -45.36        2.537E-4      -52.89        0.99646       -7.19          
33.9550       0.99599       -7.34         2.416E-4      -92.46        2.616E-4      -98.03        0.9965        -7.21          
33.9900       0.99609       -7.35         7.929E-5      -93.24        1.881E-4      -127.37       0.99639       -7.23          
34.0250       0.9959        -7.37         6.561E-5      85.28         6.528E-5      87.70         0.99645       -7.23          
34.0600       0.99574       -7.36         2.137E-4      -43.25        2.092E-4      -50.50        0.99656       -7.26          
34.0950       0.9959        -7.36         1.024E-4      -88.99        1.946E-4      -100.34       0.9965        -7.28          
34.1300       0.99617       -7.37         2.109E-4      -135.09       1.787E-4      -124.44       0.99635       -7.31          
34.1650       0.99622       -7.39         9.797E-5      -63.86        4.154E-5      -113.29       0.99595       -7.34          
34.2000       0.99647       -7.41         2.724E-4      -101.29       2.046E-4      -103.96       0.99489       -7.33          
34.2350       0.99638       -7.44         2.165E-4      -164.22       2.357E-4      179.76        0.99542       -7.27          
34.2700       0.99625       -7.47         1.425E-4      172.21        1.679E-4      159.02        0.99617       -7.30          
34.3050       0.99591       -7.50         6.423E-5      150.04        9.916E-5      178.84        0.99619       -7.32          
34.3400       0.99543       -7.53         4.41E-5       156.02        8.312E-5      166.87        0.99633       -7.34          
34.3750       0.9941        -7.52         1.874E-4      -152.08       2.284E-4      -156.83       0.99634       -7.38          
34.4100       0.99453       -7.52         1.195E-4      86.83         1.802E-4      87.17         0.99623       -7.41          
34.4450       0.99343       -7.46         3.239E-4      -149.96       3.241E-4      -151.15       0.99578       -7.48          
34.4800       0.99491       -7.44         8.101E-4      88.82         8.255E-4      86.23         0.9938        -7.45          
34.5150       0.99435       -7.48         1.138E-3      29.19         1.144E-3      31.89         0.99351       -7.46          
34.5500       0.99506       -7.44         7.341E-4      -83.30        7.744E-4      -83.39        0.99364       -7.35          
34.5850       0.99529       -7.48         5.803E-4      -149.81       5.388E-4      -153.60       0.99427       -7.33          
34.6200       0.99533       -7.50         3.195E-4      172.83        3.031E-4      168.48        0.99506       -7.37          
34.6550       0.99485       -7.52         2.513E-4      100.24        2.758E-4      109.15        0.99488       -7.38          
34.6900       0.99439       -7.50         1.613E-4      -104.60       1.518E-4      -124.08       0.995         -7.39          
34.7250       0.99482       -7.48         2.118E-4      173.75        2.269E-4      170.35        0.99502       -7.40          
34.7600       0.99501       -7.48         4.13E-4       164.87        5.081E-4      161.73        0.99478       -7.40          
34.7950       0.9954        -7.49         5.367E-4      112.04        5.685E-4      116.46        0.99521       -7.39          
34.8300       0.99556       -7.51         3.885E-4      69.54         4.647E-4      75.95         0.99538       -7.40          
34.8650       0.99577       -7.51         2.204E-4      66.73         2.477E-4      68.41         0.99565       -7.41          
34.9000       0.99587       -7.53         2.188E-4      65.03         2.109E-4      59.27         0.99576       -7.43          
34.9350       0.99616       -7.54         1.091E-4      37.44         1.463E-4      53.71         0.99572       -7.45          
34.9700       0.99625       -7.57         7.774E-5      58.04         5.225E-5      131.82        0.99591       -7.46          
35.0050       0.99623       -7.59         1.567E-4      86.24         2.002E-4      107.89        0.99586       -7.47          
35.0400       0.99628       -7.60         1.411E-4      125.12        1.559E-4      122.73        0.99611       -7.48          
35.0750       0.99646       -7.62         2.141E-4      114.68        2.418E-4      124.56        0.99631       -7.51          
35.1100       0.99652       -7.66         2.994E-4      122.53        3.375E-4      127.70        0.99625       -7.54          
35.1450       0.99629       -7.68         4.825E-4      113.27        4.05E-4       103.88        0.99607       -7.55          
35.1800       0.99617       -7.70         3.638E-4      85.36         3.916E-4      92.41         0.99606       -7.58          
35.2150       0.99592       -7.72         3.492E-4      84.36         4.129E-4      80.69         0.99563       -7.59          
35.2500       0.99545       -7.74         4.299E-4      92.76         4.453E-4      92.61         0.99537       -7.58          
35.2850       0.99523       -7.73         5.21E-4       77.67         4.795E-4      80.50         0.99571       -7.58          
35.3200       0.99525       -7.73         4.115E-4      65.45         3.588E-4      69.45         0.9959        -7.59          
35.3550       0.99547       -7.74         4.111E-4      82.94         4.34E-4       89.45         0.99609       -7.61          
