!    23/08/2022   4:53:40 PM 
! Ref Plane: 0.000 mm
# MHZ S MA R  50
!
35.0000       0.99495       -7.49         1.909E-4      94.21         3.186E-4      103.66        0.99548       -7.61          
35.0013       0.99504       -7.49         2.60E-4       77.12         2.866E-4      92.40         0.9955        -7.61          
35.0025       0.99498       -7.49         2.233E-4      95.58         2.573E-4      95.99         0.99553       -7.62          
35.0038       0.99502       -7.49         2.809E-4      116.04        2.255E-4      96.97         0.9955        -7.62          
35.0050       0.99504       -7.49         2.207E-4      112.28        2.761E-4      104.88        0.99549       -7.62          
35.0063       0.99497       -7.49         2.552E-4      85.91         1.92E-4       93.08         0.99553       -7.62          
35.0075       0.99503       -7.49         2.814E-4      94.71         2.878E-4      98.63         0.99555       -7.62          
35.0088       0.99502       -7.49         2.551E-4      88.11         3.047E-4      93.04         0.99558       -7.62          
35.0100       0.99508       -7.49         2.439E-4      72.44         2.331E-4      99.20         0.9955        -7.62          
35.0113       0.99511       -7.49         2.154E-4      102.82        3.075E-4      105.17        0.99554       -7.62          
35.0125       0.99506       -7.49         2.621E-4      102.37        3.092E-4      99.56         0.99554       -7.62          
35.0138       0.99504       -7.50         4.306E-4      102.26        2.758E-4      103.36        0.99562       -7.62          
35.0150       0.99506       -7.50         2.499E-4      93.01         3.347E-4      99.41         0.99556       -7.62          
35.0163       0.99506       -7.49         3.047E-4      105.73        3.045E-4      100.67        0.99554       -7.62          
35.0175       0.99503       -7.50         2.586E-4      103.73        2.909E-4      104.96        0.99559       -7.62          
35.0188       0.99506       -7.50         2.653E-4      79.53         2.937E-4      98.35         0.99553       -7.63          
35.0200       0.99511       -7.50         1.549E-4      114.89        2.717E-4      94.16         0.9956        -7.62          
35.0213       0.99509       -7.50         1.926E-4      87.60         3.408E-4      87.42         0.9956        -7.63          
35.0225       0.99509       -7.50         1.812E-4      111.76        3.174E-4      90.04         0.99559       -7.63          
35.0238       0.99511       -7.50         3.057E-4      104.44        3.101E-4      100.59        0.99563       -7.63          
35.0250       0.99509       -7.50         2.919E-4      96.99         2.872E-4      99.02         0.99564       -7.63          
35.0263       0.99513       -7.50         1.469E-4      98.15         2.28E-4       101.86        0.99559       -7.63          
35.0275       0.9951        -7.50         1.869E-4      94.79         2.907E-4      98.45         0.99566       -7.63          
35.0288       0.9951        -7.50         2.129E-4      70.36         3.012E-4      102.26        0.99565       -7.63          
35.0300       0.99508       -7.50         1.654E-4      91.46         3.217E-4      98.09         0.99567       -7.63          
35.0313       0.99515       -7.50         2.08E-4       96.69         2.77E-4       107.05        0.99563       -7.63          
35.0325       0.99516       -7.50         2.532E-4      88.91         3.667E-4      109.62        0.99568       -7.63          
35.0338       0.9951        -7.51         2.474E-4      83.34         3.508E-4      97.69         0.99566       -7.63          
35.0350       0.99513       -7.51         1.196E-4      114.11        3.477E-4      102.01        0.99568       -7.63          
35.0363       0.99515       -7.51         2.84E-4       96.64         3.148E-4      86.94         0.99567       -7.63          
35.0375       0.99517       -7.51         2.559E-4      93.93         3.153E-4      93.65         0.99571       -7.64          
35.0388       0.99515       -7.51         2.918E-4      103.38        3.456E-4      98.84         0.99569       -7.63          
35.0400       0.99516       -7.51         2.725E-4      103.29        2.952E-4      105.66        0.99568       -7.64          
35.0413       0.9952        -7.51         2.70E-4       79.16         2.798E-4      95.45         0.99568       -7.64          
35.0425       0.9952        -7.51         2.276E-4      82.16         3.365E-4      100.23        0.99572       -7.64          
35.0438       0.9952        -7.51         3.296E-4      95.95         3.621E-4      94.29         0.99569       -7.64          
35.0450       0.99519       -7.51         3.054E-4      94.91         3.707E-4      96.55         0.99576       -7.64          
35.0463       0.99523       -7.51         2.76E-4       102.80        3.005E-4      85.71         0.99574       -7.64          
35.0475       0.99521       -7.51         3.726E-4      92.43         3.137E-4      93.48         0.9957        -7.64          
35.0488       0.99527       -7.52         2.943E-4      90.71         3.451E-4      85.13         0.99573       -7.64          
35.0500       0.99527       -7.51         3.433E-4      89.20         3.44E-4       96.13         0.99574       -7.64          
35.0513       0.9953        -7.52         2.978E-4      85.19         2.71E-4       96.56         0.99573       -7.64          
35.0525       0.99531       -7.52         2.777E-4      95.39         3.468E-4      94.02         0.99573       -7.64          
35.0538       0.99526       -7.52         3.14E-4       85.86         3.505E-4      85.67         0.99574       -7.65          
35.0550       0.99527       -7.52         3.637E-4      94.78         3.975E-4      104.08        0.99575       -7.65          
35.0563       0.99532       -7.52         3.414E-4      95.44         3.34E-4       95.17         0.9958        -7.65          
35.0575       0.99532       -7.52         3.322E-4      93.23         3.181E-4      99.45         0.99571       -7.65          
35.0588       0.99534       -7.52         3.045E-4      95.89         3.522E-4      101.83        0.99576       -7.65          
35.0600       0.99532       -7.52         3.851E-4      98.98         3.664E-4      93.27         0.99577       -7.65          
35.0613       0.99533       -7.53         2.091E-4      92.84         3.455E-4      97.26         0.99578       -7.65          
35.0625       0.9953        -7.53         2.697E-4      89.03         3.40E-4       92.71         0.99578       -7.65          
35.0638       0.99538       -7.53         2.90E-4       77.31         2.964E-4      83.02         0.99577       -7.66          
35.0650       0.99542       -7.53         3.283E-4      84.89         3.316E-4      96.19         0.99574       -7.66          
35.0663       0.99536       -7.53         2.915E-4      99.44         2.714E-4      94.75         0.99578       -7.66          
35.0675       0.99541       -7.54         2.527E-4      93.07         2.498E-4      106.78        0.99581       -7.66          
35.0688       0.99541       -7.54         2.235E-4      79.20         3.391E-4      92.77         0.99579       -7.66          
35.0700       0.99541       -7.54         2.673E-4      81.93         3.146E-4      80.67         0.99575       -7.66          
35.0713       0.9954        -7.54         3.514E-4      96.30         2.823E-4      78.37         0.99579       -7.66          
35.0725       0.9954        -7.54         3.009E-4      91.14         3.824E-4      91.02         0.99582       -7.66          
35.0738       0.99541       -7.54         2.997E-4      75.38         2.539E-4      89.13         0.99578       -7.66          
35.0750       0.99535       -7.54         2.51E-4       72.48         3.379E-4      78.77         0.99584       -7.66          
35.0763       0.99546       -7.54         2.513E-4      92.52         3.529E-4      77.75         0.9958        -7.66          
35.0775       0.99538       -7.55         3.298E-4      86.78         3.141E-4      82.63         0.99579       -7.67          
35.0788       0.99543       -7.55         3.327E-4      78.31         3.284E-4      85.96         0.99578       -7.67          
35.0800       0.9954        -7.55         3.389E-4      83.44         2.834E-4      89.16         0.99576       -7.67          
35.0813       0.9954        -7.55         2.956E-4      83.02         3.576E-4      83.03         0.99575       -7.67          
35.0825       0.9954        -7.55         3.045E-4      90.83         3.043E-4      92.27         0.99579       -7.67          
35.0838       0.99541       -7.55         2.047E-4      96.39         3.289E-4      84.84         0.99581       -7.66          
35.0850       0.99536       -7.55         3.013E-4      67.43         3.364E-4      74.08         0.9958        -7.67          
35.0863       0.99535       -7.56         2.744E-4      91.76         3.18E-4       88.42         0.99578       -7.67          
35.0875       0.99539       -7.56         2.631E-4      88.59         3.457E-4      82.63         0.99581       -7.67          
35.0888       0.99537       -7.56         3.25E-4       84.34         2.16E-4       81.04         0.99584       -7.67          
35.0900       0.99534       -7.56         3.487E-4      85.10         3.105E-4      90.45         0.9958        -7.67          
35.0913       0.99536       -7.56         3.664E-4      86.66         3.478E-4      93.46         0.99578       -7.67          
35.0925       0.99536       -7.56         2.645E-4      88.35         2.876E-4      95.32         0.9958        -7.67          
35.0938       0.99532       -7.56         2.981E-4      105.26        3.199E-4      88.20         0.99581       -7.67          
35.0950       0.99533       -7.56         3.272E-4      71.73         2.951E-4      83.82         0.99582       -7.67          
35.0963       0.99534       -7.56         2.706E-4      69.02         3.10E-4       97.23         0.99582       -7.67          
35.0975       0.99534       -7.56         2.608E-4      80.96         3.342E-4      84.32         0.99583       -7.67          
35.0988       0.99535       -7.56         2.289E-4      69.50         3.692E-4      93.34         0.99578       -7.67          
35.1000       0.99529       -7.56         3.197E-4      79.15         3.193E-4      89.88         0.99584       -7.68          
35.1013       0.9953        -7.57         2.986E-4      80.32         3.319E-4      88.13         0.99583       -7.68          
35.1025       0.99525       -7.56         2.818E-4      72.45         2.71E-4       98.50         0.99581       -7.68          
35.1038       0.99526       -7.57         2.559E-4      102.55        3.517E-4      90.34         0.99584       -7.67          
35.1050       0.99531       -7.57         3.391E-4      83.49         2.797E-4      79.43         0.99582       -7.68          
35.1063       0.99533       -7.57         3.163E-4      81.65         3.053E-4      81.20         0.99583       -7.68          
35.1075       0.99527       -7.57         2.512E-4      86.12         3.40E-4       89.20         0.99577       -7.68          
35.1088       0.99532       -7.57         2.018E-4      86.42         2.75E-4       87.95         0.99586       -7.68          
35.1100       0.99527       -7.57         2.629E-4      90.06         2.784E-4      81.65         0.9958        -7.68          
35.1113       0.99529       -7.57         2.399E-4      82.79         3.73E-4       92.10         0.99583       -7.68          
35.1125       0.99528       -7.57         2.641E-4      76.57         3.237E-4      98.55         0.99588       -7.68          
35.1138       0.99529       -7.57         2.972E-4      104.91        3.353E-4      90.20         0.99583       -7.68          
35.1150       0.99528       -7.58         3.012E-4      79.54         2.992E-4      82.56         0.99585       -7.68          
35.1163       0.99524       -7.58         2.869E-4      87.82         3.187E-4      93.09         0.99584       -7.68          
35.1175       0.99529       -7.58         2.297E-4      74.13         2.521E-4      90.39         0.9958        -7.68          
35.1188       0.99526       -7.58         1.923E-4      92.74         2.901E-4      89.30         0.9958        -7.68          
35.1200       0.99525       -7.58         1.826E-4      102.35        2.692E-4      100.29        0.99584       -7.68          
35.1213       0.99527       -7.58         2.446E-4      89.54         3.123E-4      91.59         0.99585       -7.69          
35.1225       0.99523       -7.58         2.38E-4       69.73         2.985E-4      81.67         0.99587       -7.69          
35.1238       0.99524       -7.58         2.37E-4       88.22         3.541E-4      99.61         0.99582       -7.69          
35.1250       0.99525       -7.58         2.09E-4       92.76         2.935E-4      90.73         0.99584       -7.69          
35.1263       0.99525       -7.58         2.599E-4      93.72         3.143E-4      82.74         0.99581       -7.69          
35.1275       0.99522       -7.58         2.973E-4      104.10        3.324E-4      82.25         0.99583       -7.69          
35.1288       0.9952        -7.59         2.622E-4      81.88         3.267E-4      96.95         0.99582       -7.69          
35.1300       0.99523       -7.59         2.70E-4       63.36         2.642E-4      91.55         0.99579       -7.69          
35.1313       0.99523       -7.59         2.531E-4      86.34         3.359E-4      104.72        0.99582       -7.69          
35.1325       0.99517       -7.59         3.456E-4      85.63         2.821E-4      101.04        0.99583       -7.69          
35.1338       0.99522       -7.59         2.074E-4      91.87         2.937E-4      98.00         0.99585       -7.69          
35.1350       0.9952        -7.59         2.113E-4      83.46         2.755E-4      99.58         0.99586       -7.69          
35.1363       0.99516       -7.59         2.056E-4      100.22        2.901E-4      90.77         0.99584       -7.69          
35.1375       0.99514       -7.59         2.789E-4      91.05         2.165E-4      96.85         0.99584       -7.69          
35.1388       0.99517       -7.59         2.437E-4      102.01        3.112E-4      87.46         0.99583       -7.70          
35.1400       0.99516       -7.59         1.86E-4       96.86         2.801E-4      90.28         0.99587       -7.70          
35.1413       0.99515       -7.60         2.714E-4      87.77         2.653E-4      100.80        0.99585       -7.70          
35.1425       0.99515       -7.59         2.763E-4      85.40         2.819E-4      87.72         0.9959        -7.70          
35.1438       0.99516       -7.60         2.623E-4      70.06         3.037E-4      94.89         0.99584       -7.70          
35.1450       0.99511       -7.60         1.501E-4      103.36        2.816E-4      95.19         0.99582       -7.70          
35.1463       0.99515       -7.60         2.723E-4      86.22         2.503E-4      96.04         0.99583       -7.70          
35.1475       0.99511       -7.60         2.961E-4      70.21         2.512E-4      93.09         0.99579       -7.70          
35.1488       0.9951        -7.60         2.556E-4      87.74         2.851E-4      93.04         0.99581       -7.70          
35.1500       0.99508       -7.59         1.93E-4       90.05         3.167E-4      93.94         0.99581       -7.71          
35.1513       0.99507       -7.60         2.473E-4      97.73         2.302E-4      97.16         0.99582       -7.71          
35.1525       0.99507       -7.60         2.837E-4      84.59         2.239E-4      102.08        0.9958        -7.71          
35.1538       0.99508       -7.60         2.941E-4      96.30         3.069E-4      88.97         0.99582       -7.71          
35.1550       0.99509       -7.60         2.788E-4      96.08         2.699E-4      100.03        0.99577       -7.71          
35.1563       0.99505       -7.60         2.167E-4      87.94         2.654E-4      91.65         0.9958        -7.71          
35.1575       0.99507       -7.60         2.133E-4      80.45         3.199E-4      102.75        0.99581       -7.71          
35.1588       0.99509       -7.60         2.297E-4      109.09        3.009E-4      110.35        0.99583       -7.71          
35.1600       0.99505       -7.61         2.81E-4       102.22        3.074E-4      96.48         0.99583       -7.71          
35.1613       0.99503       -7.61         2.98E-4       92.79         2.843E-4      102.94        0.99578       -7.71          
35.1625       0.995         -7.61         2.938E-4      110.87        2.967E-4      100.55        0.99581       -7.71          
35.1638       0.99506       -7.61         2.004E-4      135.80        2.962E-4      92.90         0.99577       -7.71          
35.1650       0.995         -7.61         2.154E-4      114.46        3.253E-4      98.22         0.99573       -7.72          
35.1663       0.99499       -7.61         2.479E-4      96.21         3.183E-4      92.61         0.99578       -7.72          
35.1675       0.99495       -7.61         1.954E-4      106.11        3.381E-4      101.94        0.99579       -7.72          
35.1688       0.99502       -7.61         2.526E-4      83.34         3.407E-4      103.43        0.99575       -7.72          
35.1700       0.99501       -7.61         2.424E-4      108.59        3.306E-4      107.51        0.99575       -7.72          
35.1713       0.99498       -7.61         3.051E-4      90.23         3.08E-4       103.81        0.99574       -7.72          
35.1725       0.99499       -7.61         2.928E-4      107.15        3.416E-4      110.33        0.99577       -7.72          
35.1738       0.99498       -7.61         2.657E-4      82.07         2.886E-4      108.36        0.99575       -7.72          
35.1750       0.99499       -7.62         2.771E-4      103.04        3.27E-4       99.73         0.99575       -7.72          
35.1763       0.99502       -7.62         3.093E-4      96.95         3.607E-4      101.75        0.99574       -7.72          
35.1775       0.995         -7.62         2.336E-4      107.49        3.772E-4      103.48        0.99572       -7.72          
35.1788       0.99496       -7.62         2.954E-4      107.78        3.168E-4      107.65        0.99569       -7.73          
35.1800       0.99497       -7.62         3.037E-4      107.04        2.981E-4      114.20        0.99569       -7.72          
35.1813       0.99495       -7.62         2.171E-4      80.16         2.993E-4      97.27         0.99568       -7.73          
35.1825       0.99498       -7.62         2.754E-4      77.89         3.444E-4      113.04        0.9957        -7.73          
35.1838       0.99495       -7.62         3.992E-4      107.97        3.854E-4      98.57         0.99571       -7.73          
35.1850       0.99496       -7.62         2.815E-4      108.51        3.633E-4      102.41        0.99566       -7.73          
35.1863       0.99493       -7.62         3.642E-4      97.70         3.399E-4      102.35        0.99563       -7.73          
35.1875       0.99492       -7.62         3.531E-4      113.23        3.672E-4      93.93         0.99566       -7.73          
35.1888       0.99488       -7.62         3.801E-4      96.88         3.55E-4       105.35        0.99564       -7.73          
35.1900       0.99488       -7.63         3.428E-4      92.19         3.811E-4      113.01        0.99561       -7.73          
35.1913       0.99486       -7.63         3.434E-4      102.32        4.957E-4      105.70        0.99559       -7.73          
