!    23/08/2022   4:55:09 PM 
! Ref Plane: 0.000 mm
# MHZ S MA R  50
!
35.0000       0.99428       -7.50         3.187E-4      147.29        4.124E-4      140.14        0.99529       -7.57          
35.0013       0.99435       -7.50         2.749E-4      127.62        3.699E-4      135.11        0.99532       -7.57          
35.0025       0.99435       -7.50         3.621E-4      143.82        3.426E-4      140.05        0.99532       -7.57          
35.0038       0.99435       -7.50         3.647E-4      142.35        3.497E-4      137.74        0.99534       -7.57          
35.0050       0.99436       -7.50         3.182E-4      145.88        3.737E-4      141.48        0.99539       -7.57          
35.0063       0.99437       -7.50         3.438E-4      131.88        3.692E-4      143.47        0.99542       -7.57          
35.0075       0.99435       -7.50         3.402E-4      127.85        3.844E-4      135.18        0.99539       -7.57          
35.0088       0.99443       -7.50         3.193E-4      126.17        4.177E-4      131.64        0.99542       -7.58          
35.0100       0.99448       -7.50         2.525E-4      128.58        3.433E-4      134.06        0.99537       -7.57          
35.0113       0.99452       -7.51         3.749E-4      131.85        4.181E-4      131.61        0.99544       -7.57          
35.0125       0.99447       -7.50         3.733E-4      135.03        3.871E-4      127.29        0.99544       -7.57          
35.0138       0.99449       -7.51         5.699E-4      122.12        3.762E-4      130.57        0.99548       -7.58          
35.0150       0.99454       -7.51         3.928E-4      126.42        4.343E-4      129.31        0.99548       -7.58          
35.0163       0.99454       -7.51         4.371E-4      123.62        4.482E-4      127.01        0.99549       -7.58          
35.0175       0.99455       -7.51         3.732E-4      126.88        4.092E-4      125.73        0.99554       -7.58          
35.0188       0.99454       -7.51         3.445E-4      105.36        4.522E-4      122.18        0.99551       -7.58          
35.0200       0.99461       -7.51         3.515E-4      136.10        3.654E-4      129.66        0.99554       -7.58          
35.0213       0.99461       -7.51         2.913E-4      123.34        3.88E-4       116.39        0.99555       -7.58          
35.0225       0.99457       -7.51         3.233E-4      132.72        3.883E-4      111.69        0.99552       -7.58          
35.0238       0.99462       -7.51         3.959E-4      113.47        4.336E-4      116.10        0.99556       -7.58          
35.0250       0.99464       -7.51         4.147E-4      116.84        4.203E-4      120.44        0.9956        -7.58          
35.0263       0.99466       -7.51         2.619E-4      126.36        3.522E-4      115.78        0.99554       -7.58          
35.0275       0.99465       -7.51         2.974E-4      118.28        4.254E-4      114.07        0.99558       -7.58          
35.0288       0.9947        -7.51         2.956E-4      103.69        4.072E-4      114.80        0.99557       -7.58          
35.0300       0.99466       -7.51         2.694E-4      108.34        3.815E-4      117.71        0.99561       -7.59          
35.0313       0.99469       -7.51         3.428E-4      114.37        3.951E-4      107.89        0.99559       -7.58          
35.0325       0.99478       -7.51         3.144E-4      105.17        4.528E-4      118.29        0.99564       -7.58          
35.0338       0.99476       -7.52         3.342E-4      109.65        4.745E-4      113.19        0.99561       -7.59          
35.0350       0.99476       -7.52         2.487E-4      128.24        4.365E-4      114.96        0.99568       -7.59          
35.0363       0.99474       -7.52         4.131E-4      108.82        3.911E-4      102.76        0.99566       -7.59          
35.0375       0.99476       -7.52         3.359E-4      105.31        4.358E-4      105.79        0.99572       -7.59          
35.0388       0.99479       -7.52         3.979E-4      112.09        4.303E-4      103.28        0.99565       -7.59          
35.0400       0.9948        -7.52         3.764E-4      110.29        3.717E-4      112.35        0.99568       -7.59          
35.0413       0.99486       -7.52         3.306E-4      98.24         3.959E-4      106.40        0.99568       -7.59          
35.0425       0.99485       -7.52         2.943E-4      95.39         4.197E-4      109.08        0.9957        -7.59          
35.0438       0.99488       -7.52         3.931E-4      99.26         4.618E-4      101.73        0.9957        -7.59          
35.0450       0.99486       -7.52         3.784E-4      107.78        4.206E-4      102.31        0.99573       -7.59          
35.0463       0.99489       -7.52         3.439E-4      103.05        3.63E-4       98.51         0.99571       -7.59          
35.0475       0.99486       -7.53         3.942E-4      99.04         3.712E-4      103.97        0.99572       -7.59          
35.0488       0.99493       -7.53         3.775E-4      102.82        4.051E-4      95.55         0.99575       -7.59          
35.0500       0.99493       -7.53         3.82E-4       94.31         3.834E-4      99.23         0.99574       -7.59          
35.0513       0.99497       -7.53         3.668E-4      98.70         3.524E-4      102.38        0.99578       -7.59          
35.0525       0.99496       -7.53         3.379E-4      100.52        3.705E-4      94.75         0.99576       -7.59          
35.0538       0.99491       -7.53         3.531E-4      97.41         3.739E-4      92.67         0.99581       -7.60          
35.0550       0.99493       -7.53         3.996E-4      101.08        4.389E-4      107.76        0.99581       -7.60          
35.0563       0.99493       -7.53         3.917E-4      98.25         3.701E-4      103.60        0.99582       -7.60          
35.0575       0.99496       -7.53         3.997E-4      101.51        3.462E-4      99.65         0.99582       -7.60          
35.0588       0.99499       -7.54         2.957E-4      94.63         3.538E-4      102.16        0.99584       -7.60          
35.0600       0.99493       -7.54         4.079E-4      101.36        3.529E-4      99.70         0.99586       -7.60          
35.0613       0.99499       -7.53         2.805E-4      95.02         3.87E-4       96.92         0.99587       -7.60          
35.0625       0.99495       -7.54         3.363E-4      101.54        3.693E-4      105.90        0.99585       -7.60          
35.0638       0.99497       -7.54         3.187E-4      95.03         3.403E-4      88.82         0.99588       -7.60          
35.0650       0.99496       -7.54         2.941E-4      99.43         4.017E-4      101.99        0.99586       -7.60          
35.0663       0.99499       -7.53         3.028E-4      102.63        3.564E-4      101.07        0.99587       -7.60          
35.0675       0.99502       -7.54         2.62E-4       95.22         2.992E-4      103.73        0.99586       -7.60          
35.0688       0.99501       -7.54         2.799E-4      87.34         3.637E-4      98.21         0.99588       -7.61          
35.0700       0.99507       -7.54         3.044E-4      94.19         3.264E-4      95.15         0.99583       -7.60          
35.0713       0.99505       -7.55         4.043E-4      98.63         3.627E-4      88.64         0.9959        -7.61          
35.0725       0.995         -7.54         3.493E-4      95.25         3.953E-4      96.65         0.99591       -7.61          
35.0738       0.99502       -7.54         3.376E-4      79.32         3.383E-4      99.70         0.9959        -7.61          
35.0750       0.99497       -7.55         2.645E-4      86.89         3.914E-4      87.97         0.99594       -7.61          
35.0763       0.99506       -7.55         3.014E-4      101.19        3.917E-4      90.32         0.9959        -7.61          
35.0775       0.99503       -7.55         3.66E-4       98.27         3.111E-4      91.63         0.99595       -7.61          
35.0788       0.99503       -7.55         3.635E-4      89.85         4.259E-4      94.65         0.99593       -7.61          
35.0800       0.99503       -7.55         3.753E-4      92.27         3.493E-4      89.41         0.99594       -7.61          
35.0813       0.99506       -7.55         3.338E-4      87.98         3.856E-4      95.08         0.99592       -7.61          
35.0825       0.99506       -7.55         3.351E-4      95.49         3.514E-4      100.85        0.99601       -7.61          
35.0838       0.99503       -7.55         2.807E-4      93.70         3.636E-4      92.86         0.99595       -7.61          
35.0850       0.99504       -7.55         3.377E-4      79.74         4.211E-4      85.81         0.99593       -7.62          
35.0863       0.99503       -7.55         3.105E-4      102.05        3.737E-4      98.37         0.996         -7.62          
35.0875       0.99503       -7.55         3.05E-4       100.74        4.271E-4      85.42         0.99597       -7.62          
35.0888       0.99507       -7.56         3.694E-4      91.75         2.895E-4      99.70         0.996         -7.62          
35.0900       0.99504       -7.56         3.685E-4      86.45         3.419E-4      95.68         0.99603       -7.62          
35.0913       0.99508       -7.56         4.077E-4      89.21         3.944E-4      106.55        0.99598       -7.62          
35.0925       0.99509       -7.56         3.285E-4      92.66         3.45E-4       100.61        0.99596       -7.62          
35.0938       0.99507       -7.56         3.244E-4      102.30        3.53E-4       91.27         0.99599       -7.62          
35.0950       0.99503       -7.56         3.536E-4      80.66         3.438E-4      92.66         0.99595       -7.62          
35.0963       0.99505       -7.56         2.734E-4      73.71         3.284E-4      92.24         0.996         -7.62          
35.0975       0.99506       -7.56         3.084E-4      90.58         3.309E-4      88.91         0.99603       -7.63          
35.0988       0.99508       -7.56         2.874E-4      78.68         3.741E-4      93.09         0.996         -7.63          
35.1000       0.99506       -7.56         3.652E-4      81.44         3.552E-4      94.22         0.99603       -7.63          
35.1013       0.99508       -7.56         3.614E-4      79.95         3.723E-4      91.71         0.99601       -7.63          
35.1025       0.99503       -7.56         3.461E-4      81.13         3.332E-4      100.68        0.99601       -7.63          
35.1038       0.99505       -7.56         2.831E-4      99.21         4.21E-4       86.79         0.99602       -7.63          
35.1050       0.99508       -7.56         3.523E-4      82.49         3.541E-4      79.02         0.99602       -7.63          
35.1063       0.9951        -7.57         3.244E-4      82.56         3.523E-4      84.64         0.99602       -7.63          
35.1075       0.9951        -7.57         2.523E-4      85.76         3.807E-4      89.34         0.99599       -7.63          
35.1088       0.9951        -7.57         2.607E-4      91.47         3.252E-4      83.17         0.99601       -7.63          
35.1100       0.99509       -7.57         2.886E-4      91.01         3.054E-4      84.50         0.99599       -7.63          
35.1113       0.9951        -7.57         2.467E-4      78.24         3.937E-4      99.03         0.99602       -7.63          
35.1125       0.99511       -7.57         2.798E-4      80.62         3.779E-4      88.58         0.99602       -7.64          
35.1138       0.99509       -7.57         3.103E-4      101.67        3.763E-4      91.43         0.99605       -7.64          
35.1150       0.99509       -7.57         3.423E-4      80.20         3.506E-4      93.19         0.99601       -7.64          
35.1163       0.99509       -7.57         3.35E-4       80.68         3.708E-4      91.10         0.99604       -7.64          
35.1175       0.99508       -7.57         2.325E-4      73.89         3.041E-4      89.97         0.99599       -7.64          
35.1188       0.99513       -7.57         2.143E-4      93.73         3.486E-4      89.85         0.99601       -7.64          
35.1200       0.99515       -7.57         2.024E-4      93.18         2.881E-4      99.49         0.99603       -7.64          
35.1213       0.9951        -7.57         2.711E-4      83.51         3.367E-4      85.66         0.99602       -7.64          
35.1225       0.99512       -7.58         2.929E-4      68.70         3.455E-4      78.08         0.99604       -7.64          
35.1238       0.9951        -7.58         2.838E-4      91.74         3.556E-4      93.59         0.99597       -7.64          
35.1250       0.99515       -7.58         2.115E-4      89.06         3.489E-4      87.74         0.99598       -7.64          
35.1263       0.99515       -7.58         2.842E-4      89.22         3.775E-4      85.04         0.99598       -7.64          
35.1275       0.99517       -7.58         3.225E-4      94.42         3.654E-4      86.80         0.99598       -7.65          
35.1288       0.99516       -7.58         3.047E-4      83.98         3.477E-4      101.13        0.99602       -7.65          
35.1300       0.99517       -7.58         2.674E-4      59.60         3.275E-4      84.49         0.99601       -7.65          
35.1313       0.99515       -7.58         3.162E-4      83.40         3.663E-4      98.10         0.99601       -7.65          
35.1325       0.99515       -7.58         3.65E-4       77.67         3.136E-4      93.66         0.99602       -7.65          
35.1338       0.99518       -7.58         2.243E-4      84.59         3.546E-4      89.33         0.99601       -7.65          
35.1350       0.99512       -7.58         2.763E-4      71.49         2.868E-4      91.83         0.99601       -7.65          
35.1363       0.99516       -7.59         2.028E-4      97.30         3.309E-4      81.59         0.99606       -7.65          
35.1375       0.99515       -7.59         2.868E-4      85.76         2.575E-4      86.24         0.99601       -7.65          
35.1388       0.99516       -7.59         2.614E-4      95.77         3.104E-4      77.88         0.99603       -7.65          
35.1400       0.99518       -7.59         2.026E-4      89.58         3.221E-4      83.50         0.99605       -7.65          
35.1413       0.9952        -7.59         2.574E-4      83.73         3.023E-4      95.88         0.99603       -7.65          
35.1425       0.9952        -7.59         2.765E-4      83.33         2.781E-4      91.23         0.99609       -7.65          
35.1438       0.99524       -7.59         2.505E-4      64.72         3.059E-4      81.48         0.99606       -7.65          
35.1450       0.9952        -7.59         1.602E-4      99.52         2.743E-4      94.31         0.99603       -7.66          
35.1463       0.9952        -7.59         3.081E-4      73.48         2.523E-4      87.56         0.99602       -7.65          
35.1475       0.9952        -7.60         3.592E-4      67.14         3.022E-4      85.41         0.99599       -7.65          
35.1488       0.9952        -7.59         2.292E-4      93.95         3.014E-4      87.00         0.99605       -7.66          
35.1500       0.99518       -7.60         2.297E-4      82.17         3.043E-4      90.17         0.99599       -7.66          
35.1513       0.99521       -7.60         2.909E-4      94.01         2.483E-4      89.50         0.99602       -7.66          
35.1525       0.99518       -7.60         3.077E-4      93.81         2.107E-4      107.49        0.99604       -7.66          
35.1538       0.99521       -7.60         3.206E-4      92.51         3.161E-4      81.04         0.99608       -7.66          
35.1550       0.99523       -7.60         2.987E-4      90.79         2.474E-4      95.17         0.99602       -7.66          
35.1563       0.9952        -7.60         2.491E-4      77.78         2.943E-4      86.97         0.9961        -7.66          
35.1575       0.99522       -7.60         2.383E-4      86.20         3.03E-4       92.65         0.99602       -7.66          
35.1588       0.99517       -7.60         2.403E-4      104.66        2.398E-4      93.36         0.99609       -7.66          
35.1600       0.99518       -7.61         2.526E-4      100.34        2.865E-4      97.38         0.99607       -7.67          
35.1613       0.99518       -7.61         3.218E-4      91.92         3.015E-4      94.72         0.99607       -7.66          
35.1625       0.99518       -7.61         2.784E-4      106.58        3.13E-4       92.41         0.99608       -7.67          
35.1638       0.99522       -7.61         1.901E-4      125.76        2.993E-4      97.93         0.99604       -7.67          
35.1650       0.99518       -7.61         2.565E-4      95.88         3.294E-4      94.12         0.99599       -7.67          
35.1663       0.99516       -7.61         2.688E-4      98.25         3.253E-4      84.86         0.99607       -7.67          
35.1675       0.99515       -7.61         1.651E-4      95.91         3.265E-4      99.49         0.99608       -7.67          
35.1688       0.99518       -7.61         2.376E-4      83.54         3.55E-4       100.24        0.99602       -7.67          
35.1700       0.99518       -7.61         2.376E-4      99.12         3.594E-4      99.93         0.99603       -7.67          
35.1713       0.99515       -7.62         3.062E-4      84.72         2.974E-4      105.94        0.99604       -7.67          
35.1725       0.99514       -7.62         3.719E-4      101.07        3.497E-4      107.93        0.99608       -7.67          
35.1738       0.99514       -7.62         2.26E-4       74.81         2.868E-4      108.41        0.99606       -7.67          
35.1750       0.99515       -7.62         3.092E-4      98.01         3.485E-4      92.73         0.99607       -7.67          
35.1763       0.99517       -7.62         3.389E-4      92.27         3.518E-4      96.76         0.99606       -7.68          
35.1775       0.99516       -7.62         2.609E-4      100.43        3.396E-4      98.02         0.99604       -7.68          
35.1788       0.99516       -7.62         2.899E-4      99.23         3.272E-4      96.57         0.99601       -7.68          
35.1800       0.99517       -7.63         2.934E-4      106.61        3.094E-4      108.73        0.99602       -7.68          
35.1813       0.99513       -7.62         2.199E-4      77.75         3.472E-4      97.36         0.99608       -7.68          
35.1825       0.99515       -7.62         3.307E-4      83.98         3.69E-4       102.21        0.99604       -7.68          
35.1838       0.99514       -7.63         3.398E-4      94.99         3.72E-4       94.43         0.99607       -7.68          
35.1850       0.99513       -7.63         3.136E-4      101.16        3.804E-4      92.76         0.99601       -7.68          
35.1863       0.99509       -7.63         3.584E-4      94.86         3.616E-4      97.71         0.99598       -7.68          
35.1875       0.99513       -7.63         3.849E-4      106.19        3.892E-4      86.26         0.99601       -7.68          
35.1888       0.99506       -7.63         3.687E-4      88.01         3.557E-4      97.68         0.99601       -7.68          
35.1900       0.99511       -7.63         3.503E-4      85.83         3.691E-4      103.88        0.99603       -7.68          
35.1913       0.99507       -7.64         3.459E-4      100.36        4.435E-4      103.26        0.99597       -7.68          
