!    23/08/2022   12:26:38 PM 
! Ref Plane: 0.000 mm
# MHZ S MA R  50
!
30.0000       0.99639       -6.39         2.104E-4      55.11         1.734E-4      62.51         0.99664       -6.44          
30.0350       0.99636       -6.37         1.64E-4       -17.22        1.694E-4      4.56          0.99649       -6.44          
30.0700       0.99657       -6.36         3.808E-5      -113.37       3.206E-5      -132.20       0.99653       -6.44          
30.1050       0.99694       -6.39         1.27E-4       166.20        1.165E-4      148.11        0.99675       -6.44          
30.1400       0.99677       -6.41         1.745E-4      109.34        2.257E-4      109.84        0.99684       -6.45          
30.1750       0.99675       -6.42         2.178E-4      74.47         2.731E-4      83.38         0.99694       -6.46          
30.2100       0.99667       -6.43         2.067E-4      60.38         1.994E-4      61.90         0.99694       -6.48          
30.2450       0.99672       -6.43         2.093E-4      81.81         1.329E-4      58.44         0.99684       -6.49          
30.2800       0.9967        -6.44         9.083E-5      96.57         1.112E-4      78.69         0.99673       -6.51          
30.3150       0.99672       -6.45         2.424E-4      84.81         2.673E-4      97.37         0.99665       -6.50          
30.3500       0.99668       -6.46         3.409E-4      57.11         3.615E-4      54.80         0.99689       -6.51          
30.3850       0.99671       -6.46         3.304E-4      45.37         3.222E-4      46.65         0.99697       -6.53          
30.4200       0.9968        -6.48         3.786E-4      28.40         3.641E-4      25.60         0.99695       -6.54          
30.4550       0.9968        -6.49         2.782E-4      -5.03         3.097E-4      10.62         0.99692       -6.56          
30.4900       0.9967        -6.51         2.208E-4      -5.74         2.40E-4       -17.84        0.99683       -6.57          
30.5250       0.9966        -6.51         1.828E-4      -28.17        2.693E-4      -28.81        0.9967        -6.58          
30.5600       0.99644       -6.52         1.381E-4      -95.17        1.685E-4      -104.53       0.99646       -6.59          
30.5950       0.99645       -6.53         1.071E-4      158.25        8.447E-5      131.80        0.9965        -6.58          
30.6300       0.99634       -6.53         1.004E-4      73.55         1.497E-4      77.48         0.99657       -6.60          
30.6650       0.99629       -6.55         2.24E-4       76.87         1.739E-4      78.26         0.99646       -6.60          
30.7000       0.9961        -6.54         1.693E-4      35.06         2.305E-4      23.92         0.99638       -6.61          
30.7350       0.99626       -6.55         1.524E-4      47.66         1.482E-4      14.49         0.99635       -6.62          
30.7700       0.99616       -6.57         1.714E-4      10.98         2.333E-4      16.58         0.99612       -6.63          
30.8050       0.99582       -6.57         1.054E-4      16.75         1.433E-4      -0.03         0.99609       -6.62          
30.8400       0.99588       -6.55         1.435E-4      16.95         1.363E-4      -11.21        0.99626       -6.62          
30.8750       0.99622       -6.55         8.467E-5      9.08          1.087E-4      8.04          0.99638       -6.63          
30.9100       0.99635       -6.56         2.002E-4      -0.66         1.235E-4      -1.39         0.99651       -6.64          
30.9450       0.99658       -6.57         1.07E-4       -49.48        1.539E-4      -57.12        0.99656       -6.65          
30.9800       0.99674       -6.59         7.095E-5      61.23         3.82E-5       -125.78       0.99668       -6.67          
31.0150       0.99654       -6.62         7.288E-5      97.57         1.027E-4      96.50         0.99645       -6.67          
31.0500       0.99654       -6.63         2.181E-4      34.50         2.007E-4      43.70         0.99673       -6.68          
31.0850       0.99658       -6.64         2.225E-4      30.91         1.782E-4      29.18         0.99668       -6.70          
31.1200       0.99651       -6.66         1.911E-4      7.41          2.46E-4       16.60         0.99671       -6.72          
31.1550       0.99618       -6.67         1.606E-4      34.40         2.092E-4      7.45          0.99658       -6.73          
31.1900       0.99634       -6.67         3.455E-4      19.27         2.784E-4      18.09         0.99657       -6.75          
31.2250       0.99642       -6.68         2.689E-4      -3.36         2.777E-4      -4.52         0.99647       -6.76          
31.2600       0.99631       -6.71         2.725E-4      -0.70         2.729E-4      6.92          0.9964        -6.78          
31.2950       0.99604       -6.73         5.059E-4      -18.13        4.939E-4      -14.02        0.9959        -6.80          
31.3300       0.99603       -6.74         3.475E-4      -59.85        3.904E-4      -55.01        0.99561       -6.79          
31.3650       0.99604       -6.77         1.781E-4      -30.46        2.28E-4       -33.51        0.99614       -6.80          
31.4000       0.99563       -6.86         3.443E-4      -32.45        3.773E-4      -26.81        0.99619       -6.90          
31.4350       0.99316       -6.85         9.539E-4      -139.52       1.003E-3      -142.04       0.99418       -6.87          
31.4700       0.99267       -6.63         1.23E-3       39.44         1.226E-3      38.38         0.99296       -6.69          
31.5050       0.99443       -6.64         1.107E-3      -37.54        1.19E-3       -36.67        0.99462       -6.70          
31.5400       0.99488       -6.66         1.00E-3       -79.92        1.007E-3      -81.32        0.99519       -6.72          
31.5750       0.99505       -6.67         5.968E-4      -116.98       6.675E-4      -121.10       0.9956        -6.73          
31.6100       0.99532       -6.67         3.167E-4      -125.07       3.271E-4      -121.84       0.99568       -6.76          
31.6450       0.99559       -6.68         1.951E-4      -71.69        1.793E-4      -87.24        0.99556       -6.76          
31.6800       0.99586       -6.72         2.799E-4      -79.57        4.068E-4      -83.28        0.99588       -6.77          
31.7150       0.99579       -6.74         4.07E-4       -98.39        3.355E-4      -98.19        0.99597       -6.79          
31.7500       0.9957        -6.74         4.661E-4      -87.77        4.361E-4      -97.34        0.99587       -6.80          
31.7850       0.99583       -6.76         4.469E-4      -120.45       5.035E-4      -115.28       0.99603       -6.83          
31.8200       0.99556       -6.79         4.069E-4      -130.41       4.04E-4       -123.18       0.99591       -6.84          
31.8550       0.99512       -6.78         4.305E-4      -114.17       4.602E-4      -118.36       0.99559       -6.84          
31.8900       0.99532       -6.78         5.078E-4      -140.58       5.298E-4      -138.01       0.99565       -6.85          
31.9250       0.99532       -6.79         4.492E-4      -129.90       3.338E-4      -140.84       0.99555       -6.86          
31.9600       0.9954        -6.79         4.736E-4      -137.83       4.635E-4      -138.93       0.99577       -6.86          
31.9950       0.99514       -6.83         6.78E-4       -146.92       7.044E-4      -150.25       0.99525       -6.90          
32.0300       0.99513       -6.76         6.388E-5      -77.32        1.073E-4      -49.18        0.99515       -6.84          
32.0650       0.99557       -6.79         6.261E-4      -127.40       6.826E-4      -122.75       0.99561       -6.85          
32.1000       0.99527       -6.82         6.685E-4      -157.63       6.984E-4      -158.77       0.99569       -6.87          
32.1350       0.99563       -6.79         7.681E-4      -178.70       7.748E-4      178.49        0.99587       -6.86          
32.1700       0.99602       -6.82         4.841E-4      168.13        5.807E-4      172.55        0.99606       -6.88          
32.2050       0.99552       -6.86         6.448E-4      -177.79       6.916E-4      -174.66       0.99601       -6.91          
32.2400       0.99555       -6.82         5.185E-4      149.29        5.21E-4       145.92        0.99553       -6.89          
32.2750       0.99595       -6.84         4.726E-4      -179.25       4.451E-4      173.50        0.99614       -6.90          
32.3100       0.99608       -6.87         5.894E-4      169.20        6.426E-4      167.88        0.99637       -6.93          
32.3450       0.99591       -6.91         5.584E-4      148.27        5.694E-4      147.15        0.99598       -6.98          
32.3800       0.99493       -6.89         5.357E-4      -173.55       5.964E-4      -176.30       0.99512       -6.93          
32.4150       0.99518       -6.86         9.111E-4      156.63        9.72E-4       154.65        0.99594       -6.93          
32.4500       0.99574       -6.87         7.104E-4      129.36        8.583E-4      131.46        0.99604       -6.95          
32.4850       0.99596       -6.89         5.924E-4      117.45        6.893E-4      121.46        0.9961        -6.97          
32.5200       0.99588       -6.92         5.994E-4      119.68        5.95E-4       119.26        0.99596       -7.00          
32.5550       0.99563       -6.93         5.102E-4      112.43        5.744E-4      119.00        0.99575       -7.00          
32.5900       0.99572       -6.94         5.217E-4      126.92        5.969E-4      127.31        0.99583       -6.99          
32.6250       0.99577       -6.97         6.789E-4      112.46        6.472E-4      115.73        0.9958        -7.02          
32.6600       0.99516       -6.99         7.127E-4      98.29         7.153E-4      98.84         0.99546       -7.04          
32.6950       0.99362       -7.00         4.158E-4      60.03         4.326E-4      59.35         0.99444       -7.06          
32.7300       0.99384       -6.87         6.402E-4      142.83        6.791E-4      147.30        0.99437       -6.97          
32.7650       0.9952        -6.87         9.092E-4      108.22        9.768E-4      106.99        0.99514       -6.96          
32.8000       0.99564       -6.89         8.281E-4      83.40         8.862E-4      81.71         0.9957        -6.96          
32.8350       0.99594       -6.91         5.497E-4      75.74         6.208E-4      74.09         0.99608       -6.98          
32.8700       0.99626       -6.93         6.257E-4      79.76         6.669E-4      78.57         0.99645       -7.00          
32.9050       0.99631       -6.96         6.615E-4      66.29         5.987E-4      69.50         0.9965        -7.02          
32.9400       0.99638       -6.98         6.057E-4      62.97         6.065E-4      58.30         0.99668       -7.04          
32.9750       0.99632       -7.00         5.778E-4      63.30         5.885E-4      59.70         0.99669       -7.06          
33.0100       0.99628       -7.01         5.556E-4      62.72         5.347E-4      65.05         0.9964        -7.08          
33.0450       0.9962        -7.03         6.09E-4       59.37         6.671E-4      61.31         0.99634       -7.09          
33.0800       0.99575       -7.04         6.569E-4      38.09         6.957E-4      40.72         0.99608       -7.10          
33.1150       0.996         -7.02         4.998E-4      35.20         4.658E-4      40.03         0.99621       -7.10          
33.1500       0.9962        -7.04         6.069E-4      36.61         5.624E-4      38.53         0.99632       -7.11          
33.1850       0.99626       -7.06         4.828E-4      21.70         4.875E-4      26.01         0.99648       -7.13          
33.2200       0.99631       -7.08         3.775E-4      19.43         4.331E-4      22.03         0.99644       -7.15          
33.2550       0.99596       -7.10         3.521E-4      46.58         3.54E-4       37.43         0.99604       -7.17          
33.2900       0.99568       -7.10         6.306E-4      26.38         6.539E-4      30.20         0.99567       -7.15          
33.3250       0.99552       -7.10         5.806E-4      6.97          5.617E-4      5.09          0.99593       -7.14          
33.3600       0.99572       -7.08         3.801E-4      0.11          4.737E-4      -0.65         0.99624       -7.14          
33.3950       0.99612       -7.09         3.128E-4      9.21          3.814E-4      11.90         0.99658       -7.16          
33.4300       0.99613       -7.11         3.856E-4      2.47          4.282E-4      3.32          0.99658       -7.18          
33.4650       0.99607       -7.12         3.60E-4       -7.67         3.875E-4      -5.26         0.99652       -7.20          
33.5000       0.99618       -7.13         3.734E-4      6.88          3.54E-4       5.88          0.99643       -7.21          
33.5350       0.9962        -7.14         3.852E-4      -17.20        4.021E-4      -17.31        0.99649       -7.21          
33.5700       0.99627       -7.15         2.49E-4       -26.68        2.867E-4      -25.29        0.99663       -7.22          
33.6050       0.99638       -7.17         2.21E-4       -0.76         2.538E-4      -6.46         0.99674       -7.24          
33.6400       0.99631       -7.19         3.148E-4      -14.81        2.926E-4      -4.41         0.9967        -7.25          
33.6750       0.99608       -7.20         3.532E-4      -21.11        3.511E-4      -21.38        0.99659       -7.27          
33.7100       0.99609       -7.20         2.599E-4      -12.96        2.862E-4      -28.88        0.99645       -7.27          
33.7450       0.99609       -7.21         3.48E-4       -30.03        2.926E-4      -37.99        0.99652       -7.29          
33.7800       0.99615       -7.22         3.611E-4      -77.15        3.172E-4      -64.73        0.99642       -7.31          
33.8150       0.99626       -7.24         9.438E-5      -31.75        1.698E-4      -54.27        0.99625       -7.30          
33.8500       0.99623       -7.25         1.792E-4      -55.36        2.607E-4      -42.31        0.99645       -7.32          
33.8850       0.99607       -7.27         1.347E-4      -62.13        1.432E-4      -75.54        0.99634       -7.35          
33.9200       0.99578       -7.29         1.414E-4      -14.00        1.499E-4      -34.56        0.99597       -7.35          
33.9550       0.9957        -7.29         2.377E-4      -50.84        2.401E-4      -51.53        0.996         -7.34          
33.9900       0.99568       -7.29         2.845E-4      -57.03        2.997E-4      -81.46        0.99587       -7.34          
34.0250       0.99558       -7.28         2.19E-4       -131.94       2.249E-4      -124.05       0.99615       -7.34          
34.0600       0.99593       -7.29         6.731E-5      -170.78       1.249E-4      -173.85       0.99654       -7.35          
34.0950       0.99594       -7.31         4.646E-5      28.80         2.677E-5      -36.17        0.9965        -7.39          
34.1300       0.99594       -7.31         1.674E-4      -97.11        1.885E-4      -80.22        0.99614       -7.39          
34.1650       0.99628       -7.32         1.246E-4      -103.27       1.147E-4      -141.04       0.99647       -7.39          
34.2000       0.99656       -7.34         1.198E-4      -88.65        9.447E-5      -131.46       0.99659       -7.42          
34.2350       0.99649       -7.37         1.096E-4      -114.94       8.552E-5      -115.49       0.99661       -7.44          
34.2700       0.99638       -7.39         1.844E-4      -139.69       1.544E-4      -132.05       0.99639       -7.46          
34.3050       0.99621       -7.40         2.565E-4      -177.68       2.595E-4      178.25        0.99648       -7.46          
34.3400       0.9963        -7.43         1.628E-4      116.50        1.797E-4      132.65        0.99661       -7.50          
34.3750       0.99622       -7.46         6.145E-5      120.82        9.581E-5      114.59        0.99649       -7.54          
34.4100       0.99586       -7.50         2.464E-4      82.45         2.876E-4      89.61         0.99488       -7.60          
34.4450       0.99384       -7.58         4.326E-4      -107.86       4.172E-4      -105.55       0.99393       -7.56          
34.4800       0.99278       -7.44         1.319E-3      129.65        1.314E-3      127.36        0.99365       -7.47          
34.5150       0.99363       -7.39         1.153E-3      34.16         1.146E-3      36.20         0.99434       -7.48          
34.5500       0.99469       -7.36         7.224E-4      -35.35        7.811E-4      -38.47        0.99513       -7.47          
34.5850       0.99507       -7.41         6.006E-4      -101.77       5.934E-4      -99.09        0.99492       -7.47          
34.6200       0.9948        -7.42         4.467E-4      -157.06       4.343E-4      -158.41       0.99485       -7.48          
34.6550       0.99495       -7.41         3.355E-4      -174.54       4.124E-4      -170.56       0.99544       -7.46          
34.6900       0.99532       -7.42         2.959E-4      136.91        3.953E-4      137.83        0.99603       -7.49          
34.7250       0.99558       -7.43         2.327E-4      125.34        2.648E-4      129.45        0.99602       -7.52          
34.7600       0.99576       -7.46         2.721E-4      131.02        3.336E-4      130.79        0.9959        -7.55          
34.7950       0.99579       -7.48         3.422E-4      91.95         3.846E-4      104.98        0.99561       -7.56          
34.8300       0.99551       -7.50         2.80E-4       74.65         3.342E-4      83.86         0.99552       -7.56          
34.8650       0.99547       -7.50         2.906E-4      45.44         2.982E-4      47.07         0.99551       -7.56          
34.9000       0.9955        -7.51         1.34E-4       17.21         1.406E-4      8.75          0.99576       -7.57          
34.9350       0.99544       -7.52         1.157E-4      -110.86       9.107E-5      -106.52       0.9958        -7.59          
34.9700       0.99531       -7.53         2.399E-4      158.13        3.017E-4      166.40        0.99547       -7.59          
35.0050       0.9955        -7.53         3.164E-4      133.56        4.152E-4      131.95        0.99559       -7.59          
35.0400       0.99555       -7.53         4.156E-4      108.52        4.373E-4      106.62        0.99608       -7.59          
35.0750       0.99581       -7.54         3.614E-4      81.56         3.833E-4      84.18         0.99633       -7.61          
35.1100       0.99597       -7.56         2.494E-4      89.60         2.995E-4      89.68         0.99648       -7.64          
35.1450       0.99605       -7.58         3.577E-4      100.22        3.049E-4      85.69         0.99647       -7.65          
35.1800       0.99633       -7.60         2.705E-4      84.87         3.029E-4      91.91         0.99664       -7.68          
35.2150       0.99622       -7.63         3.204E-4      97.17         3.958E-4      93.57         0.99654       -7.70          
35.2500       0.99608       -7.64         4.448E-4      92.52         4.513E-4      96.06         0.99624       -7.71          
35.2850       0.99606       -7.66         4.986E-4      77.99         4.793E-4      80.73         0.99639       -7.73          
35.3200       0.99602       -7.67         4.961E-4      70.41         4.62E-4       71.10         0.99635       -7.75          
35.3550       0.99604       -7.69         5.612E-4      64.03         5.308E-4      64.73         0.99619       -7.76          
