!    23/08/2022   4:52:02 PM 
! Ref Plane: 0.000 mm
# MHZ S MA R  50
!
35.0000       0.99537       -7.50         1.735E-4      135.62        2.677E-4      124.32        0.9958        -7.60          
35.0013       0.99542       -7.50         2.232E-4      98.15         2.518E-4      120.56        0.99583       -7.60          
35.0025       0.99542       -7.50         2.275E-4      122.13        2.497E-4      115.45        0.99579       -7.60          
35.0038       0.99544       -7.50         2.464E-4      126.36        1.878E-4      110.16        0.99578       -7.60          
35.0050       0.99545       -7.50         2.25E-4       125.50        2.378E-4      133.14        0.99575       -7.60          
35.0063       0.99542       -7.51         2.327E-4      110.17        2.47E-4       126.17        0.99579       -7.60          
35.0075       0.99544       -7.50         2.558E-4      102.06        2.788E-4      108.28        0.99572       -7.60          
35.0088       0.99543       -7.51         2.74E-4       94.64         2.777E-4      106.60        0.99573       -7.60          
35.0100       0.99544       -7.51         1.739E-4      81.49         2.264E-4      113.30        0.99566       -7.60          
35.0113       0.99547       -7.51         2.111E-4      114.78        2.869E-4      117.73        0.99571       -7.60          
35.0125       0.99544       -7.51         2.553E-4      116.75        2.723E-4      110.01        0.99568       -7.60          
35.0138       0.99542       -7.51         4.183E-4      106.24        2.418E-4      113.00        0.99575       -7.60          
35.0150       0.99546       -7.51         2.551E-4      114.87        3.173E-4      106.92        0.9957        -7.61          
35.0163       0.99542       -7.51         3.023E-4      106.18        2.913E-4      108.86        0.99565       -7.61          
35.0175       0.99542       -7.51         2.384E-4      107.84        2.717E-4      111.38        0.99569       -7.61          
35.0188       0.99544       -7.51         2.013E-4      80.91         2.617E-4      106.61        0.99565       -7.60          
35.0200       0.99545       -7.51         1.931E-4      130.94        2.644E-4      96.85         0.99562       -7.60          
35.0213       0.99544       -7.52         1.486E-4      97.08         2.846E-4      91.76         0.99562       -7.61          
35.0225       0.99542       -7.52         1.802E-4      104.77        2.922E-4      93.50         0.99557       -7.60          
35.0238       0.99542       -7.52         2.788E-4      97.07         2.931E-4      103.18        0.99562       -7.60          
35.0250       0.99542       -7.52         3.023E-4      97.41         2.412E-4      96.68         0.99564       -7.60          
35.0263       0.99546       -7.52         1.491E-4      110.42        1.954E-4      106.77        0.9956        -7.60          
35.0275       0.99544       -7.52         1.896E-4      95.60         2.577E-4      105.10        0.99561       -7.60          
35.0288       0.99545       -7.52         1.904E-4      76.91         2.739E-4      105.27        0.99562       -7.60          
35.0300       0.99544       -7.52         1.612E-4      87.80         2.76E-4       104.30        0.99562       -7.60          
35.0313       0.99545       -7.52         1.466E-4      100.76        2.472E-4      100.86        0.99557       -7.60          
35.0325       0.99548       -7.52         2.10E-4       80.56         3.284E-4      111.15        0.99563       -7.60          
35.0338       0.99544       -7.52         2.045E-4      95.15         2.993E-4      99.93         0.9956        -7.60          
35.0350       0.99544       -7.52         1.08E-4       109.23        2.998E-4      107.67        0.99562       -7.60          
35.0363       0.99539       -7.52         2.553E-4      97.54         2.655E-4      88.88         0.99565       -7.60          
35.0375       0.99546       -7.52         2.238E-4      91.44         2.601E-4      91.89         0.99564       -7.60          
35.0388       0.99546       -7.52         2.81E-4       104.41        3.079E-4      98.46         0.99565       -7.60          
35.0400       0.99544       -7.53         2.473E-4      98.15         2.542E-4      106.78        0.99564       -7.60          
35.0413       0.99543       -7.52         2.291E-4      80.55         2.458E-4      99.83         0.99564       -7.60          
35.0425       0.99545       -7.52         1.939E-4      76.02         2.679E-4      101.33        0.99566       -7.60          
35.0438       0.99543       -7.53         3.107E-4      88.86         3.077E-4      94.58         0.9957        -7.60          
35.0450       0.99546       -7.53         2.593E-4      102.97        2.753E-4      101.33        0.9957        -7.60          
35.0463       0.99546       -7.53         2.312E-4      97.62         2.566E-4      88.28         0.99573       -7.60          
35.0475       0.99551       -7.53         2.703E-4      95.21         2.702E-4      93.34         0.99575       -7.60          
35.0488       0.99552       -7.53         2.867E-4      95.42         2.889E-4      84.87         0.99576       -7.60          
35.0500       0.99548       -7.53         2.764E-4      87.78         2.844E-4      90.72         0.99572       -7.60          
35.0513       0.99555       -7.53         2.357E-4      91.64         2.627E-4      97.83         0.99573       -7.60          
35.0525       0.99554       -7.53         2.112E-4      91.53         2.901E-4      83.23         0.99572       -7.60          
35.0538       0.99548       -7.53         2.761E-4      88.05         2.945E-4      79.70         0.99578       -7.60          
35.0550       0.99547       -7.53         2.637E-4      96.03         2.915E-4      104.67        0.99579       -7.60          
35.0563       0.99549       -7.53         2.874E-4      85.50         2.366E-4      95.03         0.99578       -7.60          
35.0575       0.99553       -7.53         2.632E-4      90.02         2.362E-4      97.40         0.99581       -7.60          
35.0588       0.99557       -7.53         1.845E-4      88.69         2.579E-4      99.55         0.99581       -7.60          
35.0600       0.99553       -7.53         2.90E-4       90.86         2.707E-4      94.87         0.99583       -7.60          
35.0613       0.99558       -7.54         1.603E-4      101.52        2.497E-4      96.91         0.99586       -7.60          
35.0625       0.99553       -7.54         2.068E-4      92.73         2.363E-4      97.64         0.99585       -7.60          
35.0638       0.99557       -7.54         2.012E-4      87.35         2.179E-4      85.55         0.99586       -7.60          
35.0650       0.99559       -7.54         1.747E-4      95.43         2.264E-4      98.77         0.99584       -7.60          
35.0663       0.99555       -7.54         1.846E-4      111.65        1.73E-4       103.11        0.99588       -7.61          
35.0675       0.99558       -7.54         1.262E-4      96.55         1.674E-4      112.65        0.99591       -7.60          
35.0688       0.9956        -7.54         1.01E-4       76.13         1.912E-4      101.64        0.99591       -7.61          
35.0700       0.99563       -7.54         1.676E-4      92.79         2.041E-4      89.86         0.9959        -7.61          
35.0713       0.9956        -7.54         2.352E-4      96.34         2.103E-4      74.57         0.99596       -7.61          
35.0725       0.9956        -7.54         2.001E-4      106.97        2.356E-4      95.18         0.99593       -7.61          
35.0738       0.99561       -7.54         1.782E-4      76.48         1.592E-4      92.25         0.99593       -7.61          
35.0750       0.99557       -7.54         8.343E-5      66.68         1.914E-4      87.65         0.996         -7.61          
35.0763       0.99561       -7.54         1.452E-4      121.69        2.161E-4      101.76        0.99594       -7.61          
35.0775       0.99555       -7.55         1.894E-4      99.32         1.261E-4      110.02        0.99598       -7.62          
35.0788       0.9956        -7.55         2.126E-4      95.40         2.198E-4      99.02         0.99596       -7.62          
35.0800       0.99559       -7.55         1.975E-4      107.56        2.075E-4      121.50        0.99593       -7.61          
35.0813       0.99562       -7.55         1.773E-4      96.32         2.265E-4      102.45        0.99597       -7.61          
35.0825       0.99564       -7.55         1.975E-4      108.91        2.408E-4      122.14        0.99603       -7.62          
35.0838       0.99564       -7.55         1.473E-4      123.40        1.881E-4      125.78        0.99603       -7.62          
35.0850       0.99564       -7.55         1.559E-4      99.42         2.164E-4      92.34         0.996         -7.62          
35.0863       0.99567       -7.55         2.128E-4      122.70        2.232E-4      117.85        0.99595       -7.62          
35.0875       0.99566       -7.55         2.112E-4      132.59        2.576E-4      109.69        0.99601       -7.62          
35.0888       0.99571       -7.55         2.383E-4      113.48        1.533E-4      129.59        0.99606       -7.62          
35.0900       0.99568       -7.55         1.945E-4      115.07        2.432E-4      125.62        0.99602       -7.62          
35.0913       0.99572       -7.55         2.966E-4      108.55        3.09E-4       132.42        0.99599       -7.62          
35.0925       0.9957        -7.55         2.309E-4      127.04        2.802E-4      132.53        0.99602       -7.62          
35.0938       0.99569       -7.55         2.663E-4      130.51        2.551E-4      123.76        0.99604       -7.63          
35.0950       0.99569       -7.56         2.319E-4      103.85        2.607E-4      127.05        0.99599       -7.63          
35.0963       0.99575       -7.56         1.94E-4       110.37        3.259E-4      134.59        0.99603       -7.63          
35.0975       0.99574       -7.56         2.362E-4      131.17        2.905E-4      119.18        0.99606       -7.63          
35.0988       0.99575       -7.56         2.182E-4      113.97        3.39E-4       122.40        0.99606       -7.63          
35.1000       0.99567       -7.56         3.022E-4      114.52        3.195E-4      113.81        0.99606       -7.63          
35.1013       0.99572       -7.56         2.775E-4      104.69        3.529E-4      114.21        0.99605       -7.63          
35.1025       0.99571       -7.57         2.529E-4      106.03        3.237E-4      126.58        0.99602       -7.63          
35.1038       0.99568       -7.56         2.994E-4      139.34        3.798E-4      113.40        0.99605       -7.63          
35.1050       0.9957        -7.57         3.31E-4       110.54        2.648E-4      106.70        0.99603       -7.63          
35.1063       0.99576       -7.57         2.715E-4      111.42        3.38E-4       111.32        0.99599       -7.63          
35.1075       0.99573       -7.57         2.706E-4      123.06        3.742E-4      110.57        0.996         -7.64          
35.1088       0.99573       -7.57         2.643E-4      118.69        3.394E-4      119.43        0.99602       -7.64          
35.1100       0.99573       -7.57         2.615E-4      121.38        3.227E-4      115.35        0.99601       -7.64          
35.1113       0.99571       -7.57         2.63E-4       119.86        3.807E-4      116.69        0.99604       -7.64          
35.1125       0.99571       -7.58         2.748E-4      119.24        3.897E-4      121.47        0.99606       -7.64          
35.1138       0.99572       -7.58         3.94E-4       126.03        3.863E-4      118.44        0.99604       -7.64          
35.1150       0.99571       -7.58         3.343E-4      107.56        3.664E-4      114.40        0.99608       -7.64          
35.1163       0.99567       -7.58         3.292E-4      108.65        3.61E-4       114.45        0.99604       -7.64          
35.1175       0.99565       -7.58         2.163E-4      111.17        2.867E-4      116.37        0.99599       -7.64          
35.1188       0.99569       -7.58         2.67E-4       126.19        3.566E-4      114.03        0.99602       -7.65          
35.1200       0.99567       -7.58         2.346E-4      127.20        3.432E-4      128.03        0.99599       -7.65          
35.1213       0.99565       -7.58         3.032E-4      114.21        3.633E-4      110.24        0.99599       -7.65          
35.1225       0.99568       -7.58         2.946E-4      107.96        3.413E-4      105.13        0.99599       -7.64          
35.1238       0.99564       -7.59         3.334E-4      112.73        4.021E-4      113.78        0.99595       -7.65          
35.1250       0.99565       -7.59         2.806E-4      122.58        3.795E-4      109.20        0.99593       -7.65          
35.1263       0.99564       -7.59         3.476E-4      117.43        3.702E-4      103.66        0.99595       -7.65          
35.1275       0.99563       -7.58         4.29E-4       120.55        3.985E-4      112.41        0.99593       -7.65          
35.1288       0.9956        -7.59         3.946E-4      112.96        4.501E-4      117.17        0.99596       -7.65          
35.1300       0.99563       -7.59         2.819E-4      89.31         3.731E-4      114.70        0.99591       -7.65          
35.1313       0.99562       -7.59         3.635E-4      111.18        4.81E-4       116.73        0.99591       -7.65          
35.1325       0.99559       -7.59         4.202E-4      99.34         3.967E-4      119.31        0.99589       -7.65          
35.1338       0.99554       -7.59         3.644E-4      117.99        4.326E-4      112.46        0.9959        -7.65          
35.1350       0.99556       -7.59         3.378E-4      98.20         4.07E-4       118.84        0.99591       -7.65          
35.1363       0.99553       -7.59         3.306E-4      118.62        4.418E-4      109.47        0.99594       -7.65          
35.1375       0.99555       -7.59         3.957E-4      109.38        3.918E-4      109.89        0.9959        -7.65          
35.1388       0.99549       -7.59         3.788E-4      110.30        4.406E-4      106.00        0.99593       -7.65          
35.1400       0.99554       -7.59         3.007E-4      112.70        4.098E-4      105.16        0.99596       -7.65          
35.1413       0.99554       -7.60         3.915E-4      103.15        4.143E-4      109.99        0.99593       -7.65          
35.1425       0.99554       -7.60         3.784E-4      102.35        4.223E-4      108.24        0.99592       -7.65          
35.1438       0.99556       -7.60         3.597E-4      91.90         4.311E-4      102.04        0.99593       -7.65          
35.1450       0.99549       -7.59         3.327E-4      117.78        4.448E-4      106.36        0.99595       -7.65          
35.1463       0.99555       -7.60         4.243E-4      91.04         3.938E-4      106.42        0.99595       -7.65          
35.1475       0.99547       -7.60         4.369E-4      87.39         4.15E-4       106.86        0.99596       -7.65          
35.1488       0.99551       -7.60         3.841E-4      103.15        4.171E-4      104.25        0.99594       -7.65          
35.1500       0.99549       -7.60         3.148E-4      97.74         4.271E-4      101.94        0.99596       -7.65          
35.1513       0.99552       -7.60         4.189E-4      102.83        4.014E-4      108.41        0.99599       -7.65          
35.1525       0.9955        -7.60         3.793E-4      98.09         3.724E-4      108.65        0.99603       -7.65          
35.1538       0.99551       -7.60         4.394E-4      100.01        4.352E-4      94.13         0.99602       -7.65          
35.1550       0.9955        -7.60         4.224E-4      101.74        4.087E-4      98.36         0.99595       -7.66          
35.1563       0.99553       -7.60         3.292E-4      91.45         4.244E-4      94.43         0.99601       -7.66          
35.1575       0.9955        -7.60         3.392E-4      89.16         4.194E-4      102.57        0.99601       -7.66          
35.1588       0.9955        -7.60         3.596E-4      104.31        3.882E-4      104.06        0.99604       -7.66          
35.1600       0.99545       -7.60         3.902E-4      100.90        4.203E-4      103.72        0.99602       -7.66          
35.1613       0.99551       -7.60         4.196E-4      90.53         4.304E-4      98.14         0.996         -7.66          
35.1625       0.99552       -7.60         4.099E-4      105.99        4.297E-4      102.22        0.99606       -7.66          
35.1638       0.99552       -7.61         3.024E-4      117.68        3.982E-4      89.51         0.996         -7.66          
35.1650       0.99548       -7.61         3.283E-4      105.42        4.235E-4      95.72         0.99596       -7.66          
35.1663       0.99549       -7.60         3.487E-4      98.21         4.34E-4       90.96         0.99607       -7.67          
35.1675       0.99548       -7.61         2.679E-4      94.73         4.266E-4      100.62        0.99602       -7.67          
35.1688       0.99551       -7.61         3.30E-4       85.89         4.281E-4      95.35         0.99599       -7.66          
35.1700       0.99554       -7.61         3.576E-4      97.61         4.375E-4      102.10        0.99601       -7.66          
35.1713       0.99547       -7.61         3.837E-4      86.66         3.992E-4      98.84         0.99599       -7.66          
35.1725       0.9955        -7.61         3.88E-4       97.63         3.993E-4      98.56         0.99602       -7.67          
35.1738       0.99547       -7.61         3.759E-4      84.83         3.399E-4      102.35        0.99606       -7.67          
35.1750       0.99554       -7.61         3.669E-4      95.78         3.851E-4      91.07         0.99603       -7.67          
35.1763       0.99556       -7.61         3.882E-4      92.23         4.223E-4      92.32         0.99602       -7.67          
35.1775       0.99555       -7.61         3.152E-4      104.15        4.001E-4      95.25         0.99606       -7.67          
35.1788       0.99553       -7.62         3.209E-4      102.54        3.45E-4       95.10         0.99597       -7.67          
35.1800       0.99555       -7.62         3.592E-4      101.59        3.546E-4      104.87        0.99601       -7.67          
35.1813       0.99551       -7.62         3.038E-4      82.44         4.066E-4      94.21         0.99605       -7.67          
35.1825       0.99552       -7.62         3.541E-4      84.43         4.022E-4      101.48        0.99601       -7.67          
35.1838       0.99553       -7.62         3.987E-4      95.46         4.194E-4      101.76        0.99604       -7.68          
35.1850       0.99549       -7.62         3.181E-4      105.26        4.503E-4      96.81         0.99604       -7.68          
35.1863       0.99551       -7.62         3.721E-4      99.89         4.096E-4      95.31         0.99602       -7.68          
35.1875       0.99549       -7.62         3.927E-4      109.24        4.213E-4      93.58         0.99605       -7.68          
35.1888       0.99543       -7.62         3.992E-4      89.78         3.927E-4      97.29         0.99605       -7.68          
35.1900       0.99551       -7.63         4.199E-4      87.98         4.111E-4      103.29        0.99606       -7.68          
35.1913       0.99543       -7.63         4.284E-4      100.63        4.716E-4      102.05        0.99603       -7.68          
