!    23/08/2022   12:29:27 PM 
! Ref Plane: 0.000 mm
# MHZ S MA R  50
!
30.0000       0.99678       -6.43         1.999E-4      75.50         1.58E-4       87.14         0.99654       -6.25          
30.0350       0.99623       -6.44         6.155E-5      -2.46         9.525E-5      62.10         0.99665       -6.27          
30.0700       0.99617       -6.40         1.003E-4      86.46         1.357E-4      93.79         0.99672       -6.29          
30.1050       0.99661       -6.40         1.004E-4      55.74         1.198E-4      35.98         0.99685       -6.31          
30.1400       0.99673       -6.42         6.39E-5       18.09         3.458E-5      15.26         0.99653       -6.33          
30.1750       0.99667       -6.44         8.251E-5      86.90         1.355E-4      105.23        0.99614       -6.35          
30.2100       0.99645       -6.44         1.728E-4      82.84         1.706E-4      98.22         0.99562       -6.34          
30.2450       0.99657       -6.44         2.223E-4      68.37         1.698E-4      43.80         0.99542       -6.31          
30.2800       0.99643       -6.45         3.226E-5      57.28         6.583E-5      48.46         0.99593       -6.28          
30.3150       0.99671       -6.45         7.295E-5      60.10         1.198E-4      98.39         0.9966        -6.29          
30.3500       0.99699       -6.46         2.243E-4      93.01         2.285E-4      90.79         0.99683       -6.32          
30.3850       0.99698       -6.48         2.726E-4      58.28         2.839E-4      69.19         0.99685       -6.34          
30.4200       0.99702       -6.49         2.52E-4       33.11         2.551E-4      33.49         0.99691       -6.36          
30.4550       0.99705       -6.51         1.256E-4      4.50          2.066E-4      32.26         0.99683       -6.38          
30.4900       0.99704       -6.52         9.783E-5      35.68         9.086E-5      0.58          0.99641       -6.39          
30.5250       0.99716       -6.54         7.757E-5      44.92         1.118E-4      17.37         0.99654       -6.38          
30.5600       0.99696       -6.57         1.049E-4      40.88         9.021E-5      45.47         0.99659       -6.39          
30.5950       0.9966        -6.60         1.442E-4      52.34         1.524E-4      45.60         0.99667       -6.39          
30.6300       0.9959        -6.61         1.627E-4      42.71         2.17E-4       46.17         0.99685       -6.41          
30.6650       0.99544       -6.59         1.832E-4      24.05         1.768E-4      13.73         0.99678       -6.42          
30.7000       0.99538       -6.57         6.492E-5      16.06         1.487E-4      21.64         0.99687       -6.44          
30.7350       0.99525       -6.55         1.504E-4      4.63          1.878E-4      -15.61        0.99685       -6.46          
30.7700       0.99571       -6.52         6.735E-5      -48.29        8.554E-5      -10.29        0.9967        -6.47          
30.8050       0.99626       -6.54         1.287E-4      93.52         7.821E-5      88.67         0.99664       -6.49          
30.8400       0.99664       -6.55         1.687E-4      47.70         1.012E-4      31.04         0.9964        -6.49          
30.8750       0.9968        -6.58         1.083E-4      54.12         1.301E-4      39.74         0.99631       -6.50          
30.9100       0.99685       -6.60         2.276E-4      23.28         1.889E-4      37.35         0.99623       -6.51          
30.9450       0.99668       -6.63         2.08E-4       15.02         1.977E-4      1.38          0.99616       -6.52          
30.9800       0.99651       -6.64         2.19E-4       9.86          2.228E-4      -17.39        0.99599       -6.53          
31.0150       0.99628       -6.65         6.729E-5      -41.56        6.079E-5      -28.02        0.99561       -6.53          
31.0500       0.99625       -6.65         1.584E-4      17.05         1.345E-4      17.20         0.99566       -6.52          
31.0850       0.99641       -6.66         1.397E-4      17.96         1.241E-4      22.36         0.99588       -6.52          
31.1200       0.99618       -6.68         2.088E-4      9.59          2.412E-4      10.01         0.99604       -6.53          
31.1550       0.99603       -6.67         1.689E-4      14.58         2.276E-4      -8.47         0.99622       -6.54          
31.1900       0.99624       -6.68         2.912E-4      -11.03        2.443E-4      -19.36        0.99629       -6.55          
31.2250       0.99634       -6.69         1.291E-4      -36.57        1.397E-4      -42.15        0.99636       -6.58          
31.2600       0.99635       -6.71         1.517E-4      24.23         1.645E-4      32.51         0.99622       -6.60          
31.2950       0.99627       -6.72         3.811E-4      -13.49        3.639E-4      -5.63         0.99602       -6.62          
31.3300       0.99635       -6.75         2.503E-4      -42.20        3.024E-4      -34.98        0.99589       -6.64          
31.3650       0.99635       -6.79         2.699E-4      -37.28        2.897E-4      -38.45        0.9959        -6.68          
31.4000       0.99462       -6.97         2.60E-4       34.68         3.437E-4      23.05         0.99343       -6.85          
31.4350       0.99148       -6.77         7.868E-4      116.92        8.638E-4      118.86        0.99222       -6.74          
31.4700       0.99411       -6.62         1.067E-3      10.29         1.087E-3      8.61          0.99341       -6.51          
31.5050       0.99472       -6.66         1.093E-3      -43.61        1.146E-3      -41.99        0.99438       -6.54          
31.5400       0.99515       -6.69         8.793E-4      -86.26        8.676E-4      -90.19        0.99443       -6.55          
31.5750       0.99493       -6.69         5.171E-4      -116.74       5.734E-4      -119.89       0.99455       -6.53          
31.6100       0.99561       -6.68         2.722E-4      -116.69       2.898E-4      -119.68       0.99528       -6.53          
31.6450       0.9961        -6.70         2.146E-4      -102.45       2.407E-4      -112.90       0.99578       -6.55          
31.6800       0.99618       -6.74         1.901E-4      -80.91        3.35E-4       -93.47        0.99587       -6.57          
31.7150       0.99594       -6.76         3.214E-4      -102.54       2.686E-4      -103.51       0.99605       -6.60          
31.7500       0.9961        -6.77         3.271E-4      -81.29        2.856E-4      -88.39        0.99607       -6.62          
31.7850       0.99616       -6.79         2.997E-4      -96.11        3.523E-4      -92.48        0.99615       -6.64          
31.8200       0.99597       -6.82         5.305E-4      -109.71       5.704E-4      -103.32       0.99612       -6.65          
31.8550       0.99569       -6.84         4.64E-4       -118.37       5.181E-4      -124.16       0.99627       -6.67          
31.8900       0.99515       -6.83         5.508E-4      -129.36       5.83E-4       -127.07       0.99599       -6.69          
31.9250       0.99396       -6.84         4.582E-4      -128.10       3.712E-4      -136.52       0.9957        -6.72          
31.9600       0.99486       -6.77         5.672E-4      -135.82       5.784E-4      -133.93       0.99555       -6.70          
31.9950       0.99548       -6.78         7.906E-4      -172.30       8.323E-4      -174.70       0.99439       -6.73          
32.0300       0.99586       -6.82         2.845E-4      -153.27       2.639E-4      -151.40       0.99515       -6.67          
32.0650       0.99555       -6.85         5.99E-4       -151.27       6.133E-4      -145.72       0.99554       -6.69          
32.1000       0.99434       -6.84         5.703E-4      178.70        5.954E-4      176.75        0.9955        -6.70          
32.1350       0.99529       -6.80         4.308E-4      -167.06       4.03E-4       -170.90       0.99572       -6.71          
32.1700       0.99576       -6.83         4.815E-4      174.23        5.721E-4      -179.02       0.99573       -6.74          
32.2050       0.99566       -6.87         2.527E-4      169.20        2.883E-4      176.16        0.99505       -6.78          
32.2400       0.99533       -6.84         1.052E-3      -170.19       1.005E-3      -170.47       0.99488       -6.71          
32.2750       0.99568       -6.87         8.286E-4      150.17        8.365E-4      144.17        0.99527       -6.73          
32.3100       0.99558       -6.86         4.395E-4      143.84        4.887E-4      142.46        0.99515       -6.74          
32.3450       0.99577       -6.88         5.708E-4      160.06        5.755E-4      159.72        0.99512       -6.72          
32.3800       0.9955        -6.88         6.664E-4      130.46        6.976E-4      130.79        0.99553       -6.71          
32.4150       0.99601       -6.90         4.162E-4      141.68        4.552E-4      139.68        0.99606       -6.73          
32.4500       0.99581       -6.93         3.922E-4      140.16        5.30E-4       139.53        0.99615       -6.78          
32.4850       0.99544       -6.95         3.214E-4      138.30        4.448E-4      137.69        0.99583       -6.80          
32.5200       0.99515       -6.95         4.926E-4      157.52        5.184E-4      159.21        0.99545       -6.81          
32.5550       0.99454       -6.91         7.707E-4      148.49        8.882E-4      151.96        0.99537       -6.78          
32.5900       0.99528       -6.90         9.035E-4      115.12        9.82E-4       116.27        0.99562       -6.79          
32.6250       0.99568       -6.90         6.82E-4       94.19         6.467E-4      94.27         0.99552       -6.80          
32.6600       0.99586       -6.92         5.814E-4      93.70         6.007E-4      97.94         0.99565       -6.81          
32.6950       0.9959        -6.94         4.421E-4      105.31        4.632E-4      106.64        0.99558       -6.81          
32.7300       0.99586       -6.95         6.965E-4      105.42        6.916E-4      109.09        0.99588       -6.82          
32.7650       0.99599       -6.95         6.657E-4      85.25         7.226E-4      83.05         0.99586       -6.84          
32.8000       0.99611       -6.96         4.95E-4       66.72         5.403E-4      69.56         0.99572       -6.85          
32.8350       0.99612       -6.98         4.176E-4      99.59         4.735E-4      93.56         0.99568       -6.84          
32.8700       0.99618       -6.99         5.867E-4      90.36         6.093E-4      92.03         0.99591       -6.84          
32.9050       0.99639       -7.01         6.991E-4      73.08         6.491E-4      79.12         0.99617       -6.86          
32.9400       0.99594       -7.04         6.498E-4      63.63         6.67E-4       61.00         0.99611       -6.89          
32.9750       0.99567       -7.02         6.246E-4      56.05         6.094E-4      53.46         0.99578       -6.90          
33.0100       0.99606       -7.02         6.099E-4      45.79         5.741E-4      50.09         0.99564       -6.89          
33.0450       0.99611       -7.05         4.038E-4      40.82         4.71E-4       44.63         0.99578       -6.89          
33.0800       0.99585       -7.05         4.414E-4      60.58         5.027E-4      65.74         0.99592       -6.90          
33.1150       0.99604       -7.06         5.774E-4      44.25         6.092E-4      48.10         0.99601       -6.92          
33.1500       0.99608       -7.07         5.889E-4      27.07         5.474E-4      23.73         0.99598       -6.93          
33.1850       0.99608       -7.09         4.104E-4      20.91         4.061E-4      23.43         0.99592       -6.95          
33.2200       0.99575       -7.10         3.344E-4      15.78         3.968E-4      17.42         0.99587       -6.96          
33.2550       0.99571       -7.10         3.12E-4       44.64         2.779E-4      34.38         0.99532       -6.97          
33.2900       0.99546       -7.09         6.138E-4      42.93         7.014E-4      46.74         0.99527       -6.91          
33.3250       0.9958        -7.10         6.454E-4      2.43          6.591E-4      1.19          0.99605       -6.93          
33.3600       0.99577       -7.09         3.077E-4      -7.85         3.874E-4      -2.49         0.99628       -6.94          
33.3950       0.9961        -7.10         2.191E-4      9.79          3.131E-4      8.48          0.99657       -6.96          
33.4300       0.9964        -7.12         3.938E-4      16.80         4.088E-4      15.20         0.99671       -6.98          
33.4650       0.99632       -7.15         3.539E-4      -4.93         3.862E-4      -4.14         0.9968        -7.00          
33.5000       0.99617       -7.15         3.791E-4      4.13          3.454E-4      3.84          0.99688       -7.02          
33.5350       0.99611       -7.17         3.977E-4      -2.31         4.461E-4      -1.12         0.99683       -7.04          
33.5700       0.99586       -7.18         3.832E-4      -24.17        4.206E-4      -24.93        0.99663       -7.06          
33.6050       0.99619       -7.15         2.59E-4       -34.12        2.864E-4      -33.26        0.99659       -7.08          
33.6400       0.99647       -7.18         2.169E-4      -27.98        2.014E-4      -16.40        0.99638       -7.10          
33.6750       0.99657       -7.20         3.605E-4      -0.81         3.566E-4      -2.61         0.99579       -7.10          
33.7100       0.99661       -7.22         4.263E-4      -22.24        4.707E-4      -26.62        0.99557       -7.09          
33.7450       0.9966        -7.23         4.79E-4       -62.03        4.503E-4      -68.72        0.99577       -7.08          
33.7800       0.99647       -7.25         2.584E-4      -102.31       2.378E-4      -90.75        0.996         -7.08          
33.8150       0.99667       -7.28         9.493E-5      -42.71        1.688E-4      -61.52        0.99612       -7.09          
33.8500       0.99622       -7.32         1.158E-4      -63.61        1.654E-4      -49.85        0.99636       -7.10          
33.8850       0.9949        -7.30         1.715E-4      -40.10        1.952E-4      -55.93        0.99661       -7.13          
33.9200       0.99554       -7.26         6.999E-5      -59.23        6.11E-5       -102.72       0.99655       -7.15          
33.9550       0.99596       -7.28         1.288E-4      -12.55        1.185E-4      -24.04        0.99624       -7.17          
33.9900       0.99613       -7.28         2.651E-4      -47.27        2.541E-4      -68.80        0.99605       -7.16          
34.0250       0.9965        -7.29         1.272E-4      -93.33        1.491E-4      -91.43        0.99648       -7.17          
34.0600       0.99659       -7.33         7.788E-5      -94.25        7.25E-5       -131.15       0.99662       -7.20          
34.0950       0.99657       -7.36         4.30E-5       -23.48        9.687E-5      -73.69        0.99645       -7.23          
34.1300       0.99631       -7.39         1.905E-4      -74.18        2.738E-4      -51.03        0.99623       -7.25          
34.1650       0.99584       -7.42         4.063E-4      -99.35        3.95E-4       -109.25       0.9958        -7.27          
34.2000       0.99455       -7.42         3.675E-4      -141.99       3.595E-4      -153.54       0.99502       -7.26          
34.2350       0.9949        -7.30         1.685E-4      -174.76       1.749E-4      165.66        0.99519       -7.22          
34.2700       0.99625       -7.34         2.235E-4      140.68        2.231E-4      129.49        0.99597       -7.22          
34.3050       0.99661       -7.38         6.493E-5      86.11         9.523E-5      90.57         0.99615       -7.26          
34.3400       0.99655       -7.44         2.986E-5      -130.58       6.306E-5      -130.75       0.99617       -7.30          
34.3750       0.9962        -7.49         2.455E-4      -173.38       2.612E-4      174.52        0.99571       -7.36          
34.4100       0.99463       -7.55         4.54E-4       174.56        5.091E-4      170.39        0.99376       -7.34          
34.4450       0.99409       -7.40         1.026E-3      73.07         1.053E-3      71.43         0.99446       -7.28          
34.4800       0.99501       -7.38         7.292E-4      -45.31        7.79E-4       -45.85        0.99493       -7.31          
34.5150       0.99484       -7.43         3.224E-4      -58.69        3.155E-4      -60.74        0.99461       -7.28          
34.5500       0.99464       -7.42         1.146E-4      -87.47        1.537E-4      -89.33        0.99496       -7.26          
34.5850       0.99498       -7.41         3.968E-4      -110.18       3.764E-4      -103.39       0.99534       -7.29          
34.6200       0.99542       -7.43         4.247E-4      -155.62       3.976E-4      -153.34       0.99515       -7.31          
34.6550       0.99536       -7.45         3.782E-4      146.08        4.379E-4      149.00        0.99521       -7.31          
34.6900       0.99525       -7.45         1.872E-4      110.86        2.475E-4      119.03        0.99511       -7.32          
34.7250       0.99564       -7.45         2.717E-4      154.11        3.061E-4      157.44        0.99522       -7.31          
34.7600       0.9959        -7.48         3.10E-4       112.50        3.709E-4      114.75        0.99547       -7.32          
34.7950       0.99585       -7.51         3.943E-4      78.52         3.967E-4      88.29         0.9956        -7.34          
34.8300       0.99543       -7.52         2.133E-4      42.59         2.643E-4      58.36         0.99553       -7.37          
34.8650       0.99532       -7.52         1.663E-4      47.99         1.515E-4      53.73         0.99531       -7.38          
34.9000       0.99513       -7.52         7.142E-5      -4.73         5.504E-5      1.71          0.99512       -7.35          
34.9350       0.99545       -7.51         7.046E-5      -174.13       9.631E-5      155.97        0.99583       -7.36          
34.9700       0.9955        -7.53         2.392E-4      163.12        2.982E-4      167.74        0.9959        -7.39          
35.0050       0.99551       -7.54         3.645E-4      120.86        4.652E-4      122.44        0.99569       -7.41          
35.0400       0.99555       -7.53         4.148E-4      81.49         4.341E-4      82.90         0.99569       -7.40          
35.0750       0.99605       -7.54         2.49E-4       55.34         2.337E-4      59.25         0.99604       -7.41          
35.1100       0.99631       -7.57         1.429E-4      90.16         1.708E-4      99.90         0.99617       -7.42          
35.1450       0.99636       -7.60         2.848E-4      121.95        2.123E-4      110.30        0.99639       -7.44          
35.1800       0.99639       -7.63         2.779E-4      105.15        3.259E-4      107.78        0.99654       -7.47          
35.2150       0.99601       -7.66         3.945E-4      103.73        4.822E-4      98.59         0.99645       -7.50          
35.2500       0.99548       -7.67         4.382E-4      75.97         4.525E-4      78.20         0.99623       -7.52          
35.2850       0.99551       -7.65         5.297E-4      84.96         5.063E-4      90.62         0.99615       -7.53          
35.3200       0.99578       -7.65         4.633E-4      61.17         4.475E-4      59.98         0.99615       -7.55          
35.3550       0.99609       -7.68         3.417E-4      66.20         3.122E-4      68.07         0.99585       -7.57          
