!    24/08/2022   11:27:57 AM 
! Ref Plane: 0.000 mm
# MHZ S MA R  50
!
35.0000       0.99547       -7.44         4.313E-4      151.56        4.566E-4      148.53        0.99509       -7.51          
35.0013       0.99544       -7.43         4.398E-4      149.43        4.718E-4      143.30        0.9951        -7.51          
35.0025       0.99539       -7.43         4.401E-4      146.36        4.891E-4      142.20        0.99511       -7.51          
35.0038       0.99543       -7.43         4.717E-4      148.01        4.834E-4      144.83        0.99513       -7.51          
35.0050       0.99539       -7.43         5.092E-4      146.18        5.087E-4      141.19        0.99506       -7.51          
35.0063       0.99541       -7.43         5.244E-4      141.60        4.916E-4      144.01        0.99507       -7.51          
35.0075       0.99541       -7.43         4.569E-4      131.44        5.29E-4       138.02        0.99509       -7.51          
35.0088       0.99538       -7.43         4.59E-4       139.68        4.696E-4      133.24        0.99503       -7.51          
35.0100       0.99546       -7.43         5.52E-4       132.91        5.152E-4      136.28        0.99504       -7.51          
35.0113       0.99544       -7.43         5.261E-4      130.97        5.531E-4      133.77        0.99503       -7.52          
35.0125       0.99548       -7.43         5.51E-4       131.17        5.419E-4      134.07        0.99501       -7.52          
35.0138       0.99543       -7.43         5.148E-4      124.19        5.082E-4      127.70        0.99501       -7.52          
35.0150       0.99546       -7.43         4.573E-4      129.61        5.475E-4      126.04        0.99503       -7.51          
35.0163       0.99546       -7.43         5.532E-4      125.36        5.409E-4      125.85        0.99498       -7.52          
35.0175       0.9955        -7.43         4.927E-4      121.73        5.029E-4      118.04        0.9949        -7.52          
35.0188       0.9955        -7.43         5.575E-4      121.91        4.975E-4      115.87        0.99492       -7.52          
35.0200       0.99552       -7.43         4.928E-4      121.97        5.171E-4      118.91        0.99492       -7.51          
35.0213       0.99554       -7.43         5.487E-4      117.47        4.951E-4      112.29        0.99487       -7.51          
35.0225       0.99551       -7.42         5.251E-4      117.82        5.419E-4      114.35        0.99486       -7.51          
35.0238       0.99554       -7.42         4.925E-4      113.78        5.52E-4       114.47        0.99491       -7.51          
35.0250       0.99555       -7.42         4.436E-4      110.10        5.354E-4      108.63        0.99482       -7.51          
35.0263       0.99558       -7.42         5.163E-4      110.64        5.511E-4      111.25        0.99488       -7.51          
35.0275       0.99553       -7.42         5.639E-4      108.32        5.392E-4      108.52        0.99482       -7.51          
35.0288       0.99553       -7.42         4.904E-4      107.59        5.607E-4      107.96        0.99483       -7.50          
35.0300       0.99559       -7.42         5.694E-4      109.49        5.521E-4      103.34        0.9948        -7.50          
35.0313       0.99559       -7.42         4.959E-4      107.76        5.391E-4      101.06        0.9948        -7.50          
35.0325       0.99558       -7.42         4.996E-4      98.45         5.864E-4      101.83        0.99487       -7.50          
35.0338       0.99564       -7.42         5.406E-4      98.22         5.728E-4      104.28        0.99484       -7.50          
35.0350       0.99564       -7.42         5.751E-4      92.79         5.291E-4      102.01        0.99484       -7.50          
35.0363       0.99565       -7.43         4.919E-4      95.39         5.185E-4      97.36         0.99486       -7.49          
35.0375       0.99568       -7.43         6.052E-4      99.29         5.444E-4      100.15        0.9949        -7.49          
35.0388       0.99567       -7.42         5.278E-4      94.62         4.984E-4      95.43         0.99488       -7.49          
35.0400       0.99567       -7.42         4.909E-4      99.11         5.38E-4       95.65         0.99492       -7.49          
35.0413       0.99567       -7.42         5.65E-4       92.97         5.393E-4      93.40         0.99491       -7.49          
35.0425       0.99572       -7.43         4.93E-4       98.53         5.267E-4      96.15         0.99495       -7.49          
35.0438       0.99574       -7.43         5.175E-4      87.90         4.875E-4      90.48         0.99499       -7.48          
35.0450       0.9957        -7.43         4.505E-4      90.22         5.264E-4      90.03         0.99506       -7.49          
35.0463       0.99574       -7.43         4.897E-4      92.57         4.959E-4      89.22         0.99505       -7.48          
35.0475       0.99569       -7.43         4.804E-4      81.96         4.977E-4      91.41         0.99509       -7.48          
35.0488       0.9957        -7.43         4.617E-4      84.78         4.526E-4      88.48         0.99507       -7.48          
35.0500       0.99574       -7.43         4.507E-4      86.92         4.79E-4       86.75         0.99513       -7.48          
35.0513       0.99576       -7.43         4.31E-4       86.20         5.09E-4       86.72         0.99515       -7.48          
35.0525       0.99572       -7.43         5.219E-4      84.16         4.729E-4      81.55         0.99519       -7.48          
35.0538       0.99577       -7.43         3.932E-4      79.83         4.912E-4      79.92         0.99518       -7.48          
35.0550       0.99572       -7.43         4.298E-4      82.20         4.846E-4      81.48         0.99528       -7.48          
35.0563       0.99578       -7.43         4.41E-4       75.77         4.729E-4      85.15         0.9953        -7.48          
35.0575       0.99581       -7.43         3.99E-4       78.58         4.853E-4      75.92         0.9953        -7.48          
35.0588       0.99579       -7.43         3.847E-4      72.28         4.44E-4       77.42         0.99533       -7.48          
35.0600       0.99582       -7.43         4.896E-4      75.03         4.465E-4      82.22         0.99534       -7.47          
35.0613       0.99585       -7.43         4.442E-4      81.71         4.40E-4       78.14         0.99537       -7.48          
35.0625       0.99585       -7.44         4.069E-4      74.20         3.985E-4      79.94         0.9954        -7.48          
35.0638       0.9958        -7.43         3.622E-4      77.62         4.273E-4      71.31         0.99545       -7.47          
35.0650       0.99586       -7.43         3.769E-4      71.85         4.131E-4      73.95         0.99547       -7.48          
35.0663       0.99589       -7.44         3.653E-4      65.03         4.205E-4      74.94         0.99557       -7.48          
35.0675       0.99583       -7.44         3.748E-4      76.76         3.728E-4      75.66         0.99558       -7.47          
35.0688       0.99586       -7.44         3.572E-4      70.79         3.829E-4      74.10         0.99556       -7.47          
35.0700       0.99589       -7.44         3.512E-4      63.27         3.749E-4      71.62         0.99563       -7.48          
35.0713       0.99585       -7.44         3.285E-4      78.56         3.613E-4      75.06         0.99567       -7.48          
35.0725       0.99589       -7.44         3.385E-4      83.78         3.736E-4      74.33         0.9957        -7.48          
35.0738       0.99587       -7.44         3.686E-4      67.42         3.667E-4      72.12         0.99573       -7.48          
35.0750       0.99585       -7.44         3.264E-4      68.87         3.711E-4      70.57         0.99575       -7.48          
35.0763       0.99587       -7.44         3.156E-4      75.32         3.972E-4      77.52         0.99579       -7.48          
35.0775       0.9959        -7.44         3.719E-4      74.41         3.641E-4      81.34         0.99579       -7.48          
35.0788       0.99586       -7.44         3.80E-4       76.69         3.914E-4      65.75         0.99584       -7.48          
35.0800       0.99588       -7.44         3.362E-4      65.81         3.661E-4      69.36         0.99588       -7.48          
35.0813       0.99593       -7.44         2.888E-4      73.87         3.366E-4      79.16         0.99587       -7.48          
35.0825       0.99588       -7.44         3.669E-4      77.10         3.50E-4       70.56         0.99591       -7.49          
35.0838       0.99591       -7.44         2.929E-4      70.16         3.826E-4      77.47         0.9959        -7.48          
35.0850       0.99592       -7.44         3.38E-4       64.86         3.842E-4      74.98         0.99597       -7.49          
35.0863       0.9959        -7.44         3.427E-4      74.81         3.408E-4      66.52         0.99601       -7.49          
35.0875       0.9959        -7.44         2.796E-4      66.96         3.514E-4      63.26         0.99596       -7.49          
35.0888       0.99589       -7.44         3.659E-4      71.51         3.547E-4      69.33         0.99597       -7.49          
35.0900       0.99592       -7.44         2.951E-4      59.11         3.421E-4      67.44         0.99598       -7.49          
35.0913       0.99592       -7.45         2.916E-4      60.16         3.368E-4      57.42         0.99602       -7.49          
35.0925       0.99594       -7.44         2.76E-4       63.09         3.157E-4      63.16         0.99602       -7.49          
35.0938       0.99595       -7.44         3.145E-4      68.65         3.027E-4      65.40         0.99602       -7.50          
35.0950       0.996         -7.44         2.926E-4      65.21         2.657E-4      68.51         0.99601       -7.50          
35.0963       0.99596       -7.44         2.142E-4      83.41         2.576E-4      73.71         0.99611       -7.50          
35.0975       0.99605       -7.44         2.685E-4      77.69         2.476E-4      63.61         0.99611       -7.50          
35.0988       0.99602       -7.44         3.001E-4      89.62         2.574E-4      71.69         0.99615       -7.50          
35.1000       0.99602       -7.45         2.132E-4      80.17         2.395E-4      68.77         0.99617       -7.50          
35.1013       0.99607       -7.45         2.148E-4      67.49         2.791E-4      73.99         0.99614       -7.50          
35.1025       0.99606       -7.45         1.733E-4      71.93         2.475E-4      74.67         0.99621       -7.50          
35.1038       0.99605       -7.45         2.318E-4      71.55         2.47E-4       83.49         0.99621       -7.50          
35.1050       0.99609       -7.45         2.072E-4      66.45         2.61E-4       78.41         0.99626       -7.50          
35.1063       0.99605       -7.45         2.389E-4      82.10         2.634E-4      78.52         0.99625       -7.51          
35.1075       0.99608       -7.45         2.351E-4      90.33         2.689E-4      76.29         0.99622       -7.51          
35.1088       0.99608       -7.45         2.277E-4      78.30         2.775E-4      83.94         0.99634       -7.51          
35.1100       0.99607       -7.45         2.592E-4      88.58         2.541E-4      86.99         0.9963        -7.51          
35.1113       0.9961        -7.45         2.773E-4      78.62         2.921E-4      87.51         0.99628       -7.51          
35.1125       0.9961        -7.45         2.166E-4      86.12         2.317E-4      78.67         0.99633       -7.51          
35.1138       0.99609       -7.46         2.899E-4      81.56         2.543E-4      89.65         0.99638       -7.52          
35.1150       0.99619       -7.46         2.611E-4      96.68         2.693E-4      81.55         0.99637       -7.52          
35.1163       0.99611       -7.45         2.499E-4      92.07         2.976E-4      82.80         0.99635       -7.52          
35.1175       0.99614       -7.46         2.438E-4      85.42         2.78E-4       78.03         0.99636       -7.52          
35.1188       0.99613       -7.46         2.964E-4      80.04         2.807E-4      82.85         0.99635       -7.52          
35.1200       0.99615       -7.46         2.631E-4      91.13         2.771E-4      81.14         0.99634       -7.52          
35.1213       0.99616       -7.46         3.036E-4      91.64         3.145E-4      76.96         0.99638       -7.52          
35.1225       0.99614       -7.46         2.157E-4      82.35         3.393E-4      73.07         0.99636       -7.52          
35.1238       0.99618       -7.46         3.176E-4      81.43         3.054E-4      80.41         0.99638       -7.53          
35.1250       0.99617       -7.46         2.456E-4      85.86         2.872E-4      91.58         0.99637       -7.52          
35.1263       0.9962        -7.46         2.887E-4      76.56         2.719E-4      79.98         0.99634       -7.53          
35.1275       0.99621       -7.46         3.352E-4      83.78         2.817E-4      80.01         0.99639       -7.53          
35.1288       0.99617       -7.46         2.786E-4      77.53         2.959E-4      81.27         0.99641       -7.53          
35.1300       0.99622       -7.46         2.683E-4      83.58         2.629E-4      79.44         0.99642       -7.53          
35.1313       0.99621       -7.46         2.449E-4      84.39         2.605E-4      77.71         0.99638       -7.53          
35.1325       0.99618       -7.47         2.623E-4      79.54         3.107E-4      78.62         0.99642       -7.53          
35.1338       0.99619       -7.47         2.006E-4      90.17         2.651E-4      74.16         0.99642       -7.53          
35.1350       0.99619       -7.47         2.406E-4      83.93         2.856E-4      74.22         0.99645       -7.54          
35.1363       0.99618       -7.47         2.785E-4      89.65         2.873E-4      73.57         0.99644       -7.54          
35.1375       0.9962        -7.47         2.343E-4      83.44         2.417E-4      85.92         0.99647       -7.54          
35.1388       0.99626       -7.47         1.987E-4      65.78         2.801E-4      74.68         0.99648       -7.54          
35.1400       0.99621       -7.47         2.357E-4      81.70         2.432E-4      81.82         0.99646       -7.54          
35.1413       0.99623       -7.47         2.999E-4      80.36         2.387E-4      81.92         0.99651       -7.54          
35.1425       0.99619       -7.47         2.202E-4      79.48         2.501E-4      83.31         0.99646       -7.55          
35.1438       0.99619       -7.47         2.139E-4      80.65         2.405E-4      85.22         0.99643       -7.55          
35.1450       0.99622       -7.47         2.06E-4       81.80         2.421E-4      80.86         0.99644       -7.55          
35.1463       0.99624       -7.47         2.153E-4      85.86         2.334E-4      87.23         0.99647       -7.55          
35.1475       0.99626       -7.48         1.969E-4      93.18         2.14E-4       82.95         0.99644       -7.55          
35.1488       0.99622       -7.47         2.41E-4       82.02         1.813E-4      87.68         0.99644       -7.55          
35.1500       0.99624       -7.47         1.61E-4       86.79         2.36E-4       76.10         0.99644       -7.55          
35.1513       0.99629       -7.47         2.051E-4      108.17        2.298E-4      85.29         0.99649       -7.55          
35.1525       0.99628       -7.47         1.994E-4      95.62         2.403E-4      90.13         0.99648       -7.55          
35.1538       0.99626       -7.47         2.408E-4      92.80         2.187E-4      87.39         0.99643       -7.55          
35.1550       0.99628       -7.47         1.673E-4      86.77         2.514E-4      87.71         0.99648       -7.56          
35.1563       0.99628       -7.48         2.063E-4      89.89         2.239E-4      95.79         0.99647       -7.56          
35.1575       0.99629       -7.48         2.113E-4      102.72        2.559E-4      85.16         0.99645       -7.56          
35.1588       0.99634       -7.48         2.151E-4      98.08         2.444E-4      92.51         0.99643       -7.56          
35.1600       0.99631       -7.48         2.266E-4      92.11         2.529E-4      92.10         0.99648       -7.56          
35.1613       0.99633       -7.48         2.635E-4      103.89        2.155E-4      107.31        0.99646       -7.56          
35.1625       0.99634       -7.48         2.358E-4      100.92        1.749E-4      99.93         0.99647       -7.56          
35.1638       0.99636       -7.48         2.147E-4      83.42         1.945E-4      98.11         0.99644       -7.56          
35.1650       0.99637       -7.48         1.984E-4      119.14        2.049E-4      101.65        0.99643       -7.56          
35.1663       0.99637       -7.48         2.346E-4      88.83         2.363E-4      98.25         0.99645       -7.56          
35.1675       0.99643       -7.48         1.944E-4      88.56         2.44E-4       86.04         0.99645       -7.56          
35.1688       0.99638       -7.48         2.232E-4      103.86        2.396E-4      101.99        0.99645       -7.57          
35.1700       0.99641       -7.49         2.381E-4      104.57        2.605E-4      95.39         0.99642       -7.57          
35.1713       0.99643       -7.48         2.084E-4      91.89         2.704E-4      95.97         0.99646       -7.57          
35.1725       0.99636       -7.49         2.609E-4      105.16        2.542E-4      106.82        0.99644       -7.57          
35.1738       0.99642       -7.49         2.759E-4      96.77         2.669E-4      108.81        0.99644       -7.57          
35.1750       0.99646       -7.49         2.845E-4      107.77        2.537E-4      105.42        0.99641       -7.57          
35.1763       0.99644       -7.49         2.709E-4      105.18        2.818E-4      101.24        0.99642       -7.57          
35.1775       0.99639       -7.49         2.893E-4      106.71        2.987E-4      110.99        0.99638       -7.57          
35.1788       0.99643       -7.49         3.359E-4      113.11        3.094E-4      99.24         0.99639       -7.57          
35.1800       0.99641       -7.50         2.549E-4      97.29         2.925E-4      106.17        0.99643       -7.57          
35.1813       0.99642       -7.49         2.72E-4       113.76        3.217E-4      116.36        0.99642       -7.57          
35.1825       0.99638       -7.50         2.968E-4      93.47         3.105E-4      102.16        0.99643       -7.58          
35.1838       0.99644       -7.50         2.94E-4       109.85        3.307E-4      104.21        0.99634       -7.58          
35.1850       0.99645       -7.50         2.836E-4      93.99         2.986E-4      104.24        0.99641       -7.58          
35.1863       0.99643       -7.50         3.22E-4       114.56        2.969E-4      103.39        0.99636       -7.58          
35.1875       0.99641       -7.50         2.708E-4      100.43        3.33E-4       97.31         0.99643       -7.58          
35.1888       0.99643       -7.50         3.192E-4      102.71        2.856E-4      100.90        0.99637       -7.58          
35.1900       0.99643       -7.50         3.05E-4       101.39        3.648E-4      103.86        0.99641       -7.58          
35.1913       0.99642       -7.50         3.504E-4      93.84         3.192E-4      103.99        0.9964        -7.58          
